(1705638751.000000) vcan0 200#00001400852FB01D
(1705638751.005000) vcan0 200#00001400AE2FB01D
(1705638751.010000) vcan0 200#000014002F2FB01D
(1705638751.011702) vcan0 7A2#27095D1A
(1705638751.015000) vcan0 200#00001400052FB01D
(1705638751.017822) vcan0 324#09
(1705638751.020000) vcan0 200#00001400B32FB01D
(1705638751.021088) vcan0 13D#E4
(1705638751.025000) vcan0 200#00001400352FB01D
(1705638751.030000) vcan0 200#00001400422FB01D
(1705638751.032647) vcan0 077#DE27D9AC7129
(1705638751.035000) vcan0 200#00001400F22EB01D
(1705638751.037796) vcan0 511#AD654D87251983
(1705638751.040000) vcan0 200#00001400A22FB01D
(1705638751.045000) vcan0 200#00001400C82FB01D
(1705638751.049677) vcan0 3C0#3255B9
(1705638751.050000) vcan0 200#00001400B52FB01D
(1705638751.055000) vcan0 200#00001400662FB01D
(1705638751.056591) vcan0 459#AF9772F5321504
(1705638751.060000) vcan0 200#000014007C2FB01D
(1705638751.064120) vcan0 2E8#C336923409
(1705638751.065000) vcan0 200#00001400A12FB01D
(1705638751.068888) vcan0 51C#E362B77B2A
(1705638751.070000) vcan0 200#00001400AE2FB01D
(1705638751.073993) vcan0 06B#84FAF2BEC416
(1705638751.075000) vcan0 200#00001400A42FB01D
(1705638751.075706) vcan0 347#0E9983
(1705638751.080000) vcan0 200#00001400022FB01D
(1705638751.080168) vcan0 38B#BA54EF45B6B6F89B
(1705638751.085000) vcan0 200#00001400622FB01D
(1705638751.086059) vcan0 5AA#AA57A674BF31
(1705638751.090000) vcan0 200#00001400442FB01D
(1705638751.091509) vcan0 1C4#7D28AD277C28B6
(1705638751.095000) vcan0 200#00001400302FB01D
(1705638751.100000) vcan0 200#000014002B2FB01D
(1705638751.100963) vcan0 603#5DABEE2182D652
(1705638751.105000) vcan0 200#00001400072FB01D
(1705638751.108537) vcan0 678#BD31
(1705638751.110000) vcan0 200#00001400142FB01D
(1705638751.115000) vcan0 200#00001400152FB01D
(1705638751.119049) vcan0 03E#9EEE0C62B687DEC6
(1705638751.120000) vcan0 200#00001400002FB01D
(1705638751.125000) vcan0 200#00001400512FB01D
(1705638751.129901) vcan0 188#4EAA4EAC39197151
(1705638751.130000) vcan0 200#00001400512FB01D
(1705638751.130152) vcan0 778#9095
(1705638751.135000) vcan0 200#00001400C22FB01D
(1705638751.140000) vcan0 200#00001400DC2FB01D
(1705638751.144354) vcan0 7E4#37E80334F3062FBA
(1705638751.145000) vcan0 200#00001400502FB01D
(1705638751.148201) vcan0 050#9B1D60F1
(1705638751.150000) vcan0 200#00001400102FB01D
(1705638751.154962) vcan0 335#6D11
(1705638751.155000) vcan0 200#000014003D2FB01D
(1705638751.160000) vcan0 200#000014000B2FB01D
(1705638751.162471) vcan0 750#FFA30D91AE
(1705638751.165000) vcan0 200#00001400122FB01D
(1705638751.170000) vcan0 200#000014009B2FB01D
(1705638751.172094) vcan0 544#B567B1E98F
(1705638751.175000) vcan0 200#00001400562FB01D
(1705638751.178449) vcan0 040#8C9E43EDDF
(1705638751.180000) vcan0 200#00001400CB2FB01D
(1705638751.185000) vcan0 200#00001400B82FB01D
(1705638751.185553) vcan0 59D#0759
(1705638751.190000) vcan0 200#00001400122FB01D
(1705638751.195000) vcan0 200#00001400422FB01D
(1705638751.200000) vcan0 200#00001400EB2EB01D
(1705638751.205000) vcan0 200#00001400062FB01D
(1705638751.210000) vcan0 200#00001400C52FB01D
(1705638751.212171) vcan0 2A1#456D83
(1705638751.215000) vcan0 200#00001400152FB01D
(1705638751.215854) vcan0 64E#2BA7075446
(1705638751.220000) vcan0 200#000014003D2FB01D
(1705638751.225000) vcan0 200#00001400EF2EB01D
(1705638751.229226) vcan0 54E#2B0BB40F
(1705638751.230000) vcan0 200#000014000F2FB01D
(1705638751.232072) vcan0 703#031B90E447F5
(1705638751.235000) vcan0 200#00001400332FB01D
(1705638751.235364) vcan0 33F#6B8F51790110BD35
(1705638751.240000) vcan0 200#00001400ED2EB01D
(1705638751.240142) vcan0 66B#7EEA38FC39FA0D
(1705638751.245000) vcan0 200#00001400D32FB01D
(1705638751.250000) vcan0 200#00001400B22FB01D
(1705638751.251986) vcan0 0D2#350F2A419105AD16
(1705638751.255000) vcan0 200#000014003F2FB01D
(1705638751.260000) vcan0 200#00001400942FB01D
(1705638751.265000) vcan0 200#000014000E2FB01D
(1705638751.270000) vcan0 200#00001400252FB01D
(1705638751.273696) vcan0 413#5723D876589E23
(1705638751.275000) vcan0 200#00001400982FB01D
(1705638751.280000) vcan0 200#00001400952FB01D
(1705638751.285000) vcan0 200#00001400372FB01D
(1705638751.288065) vcan0 454#82
(1705638751.290000) vcan0 200#00001400182FB01D
(1705638751.291393) vcan0 021#2871641035
(1705638751.295000) vcan0 200#00001400772FB01D
(1705638751.297225) vcan0 1BE#EDC3720D5452
(1705638751.300000) vcan0 200#00001400FE2EB01D
(1705638751.305000) vcan0 200#00001400882FB01D
(1705638751.306402) vcan0 3AD#72
(1705638751.310000) vcan0 200#00001400F82EB01D
(1705638751.315000) vcan0 200#00001400C02FB01D
(1705638751.316089) vcan0 614#AC67F3C7334F
(1705638751.320000) vcan0 200#00001400DF2FB01D
(1705638751.325000) vcan0 200#00001400C12FB01D
(1705638751.328784) vcan0 1DF#B793608F5EBE6A
(1705638751.330000) vcan0 200#00001400442FB01D
(1705638751.335000) vcan0 200#000014000E2FB01D
(1705638751.340000) vcan0 200#00001400782FB01D
(1705638751.340687) vcan0 7D2#E8B228CA85A7B69F
(1705638751.345000) vcan0 200#00001400E92EB01D
(1705638751.348537) vcan0 5E3#D2557F
(1705638751.350000) vcan0 200#00001400972FB01D
(1705638751.351662) vcan0 3DD#00CCF0
(1705638751.355000) vcan0 200#00001400832FB01D
(1705638751.356383) vcan0 711#9F49
(1705638751.360000) vcan0 200#00001400EC2EB01D
(1705638751.362336) vcan0 500#C8291EF0
(1705638751.365000) vcan0 200#00001400B72FB01D
(1705638751.370000) vcan0 200#00001400FE2EB01D
(1705638751.375000) vcan0 200#00001400FA2EB01D
(1705638751.380000) vcan0 200#00001400122FB01D
(1705638751.381295) vcan0 780#360116BD472ECAC7
(1705638751.385000) vcan0 200#000014009C2FB01D
(1705638751.390000) vcan0 200#00001400602FB01D
(1705638751.394336) vcan0 56A#569F9E2EBDEC70
(1705638751.395000) vcan0 200#00001400AE2FB01D
(1705638751.399327) vcan0 034#968DC5275794
(1705638751.400000) vcan0 200#00001400DD2FB01D
(1705638751.405000) vcan0 200#00001400802FB01D
(1705638751.408832) vcan0 41D#65BB2CA880A674
(1705638751.410000) vcan0 200#00001400CD2FB01D
(1705638751.411988) vcan0 6F5#11
(1705638751.415000) vcan0 200#00001400D62FB01D
(1705638751.420000) vcan0 200#000014004B2FB01D
(1705638751.425000) vcan0 200#000014005F2FB01D
(1705638751.429078) vcan0 5A1#03A39AD861F504
(1705638751.430000) vcan0 200#00001400542FB01D
(1705638751.434742) vcan0 4CC#1E6A52
(1705638751.435000) vcan0 200#00001400A02FB01D
(1705638751.438341) vcan0 3BB#6D61C8D5A250051D
(1705638751.440000) vcan0 200#00001400B22FB01D
(1705638751.445000) vcan0 200#000014006B2FB01D
(1705638751.446730) vcan0 4D4#A38811E041AB4E
(1705638751.450000) vcan0 200#00001400442FB01D
(1705638751.455000) vcan0 200#00001400532FB01D
(1705638751.456900) vcan0 022#99
(1705638751.460000) vcan0 200#00001400FA2EB01D
(1705638751.462639) vcan0 053#41
(1705638751.465000) vcan0 200#00001400302FB01D
(1705638751.467798) vcan0 0CD#CA0E
(1705638751.470000) vcan0 200#00001400912FB01D
(1705638751.472842) vcan0 5AB#21DADA
(1705638751.475000) vcan0 200#00001400F52EB01D
(1705638751.476172) vcan0 094#6DBDFF9DAC3B9806
(1705638751.480000) vcan0 200#00001400CF2FB01D
(1705638751.485000) vcan0 200#00001400A62FB01D
(1705638751.489799) vcan0 369#48
(1705638751.490000) vcan0 200#00001400292FB01D
(1705638751.495000) vcan0 200#00001400D82FB01D
(1705638751.495620) vcan0 57F#516A9EA0
(1705638751.500000) vcan0 200#00001400D82FB01D
(1705638751.505000) vcan0 200#000014003E2FB01D
(1705638751.510000) vcan0 200#00001400552FB01D
(1705638751.514408) vcan0 5BB#39F89DF266
(1705638751.515000) vcan0 200#00001400032FB01D
(1705638751.520000) vcan0 200#00001400D72FB01D
(1705638751.523751) vcan0 469#86A994BA11BA7C9D
(1705638751.525000) vcan0 200#00001400822FB01D
(1705638751.530000) vcan0 200#00001400BE2FB01D
(1705638751.533704) vcan0 53E#14
(1705638751.535000) vcan0 200#00001400E72EB01D
(1705638751.540000) vcan0 200#00001400C42FB01D
(1705638751.545000) vcan0 200#000014005D2FB01D
(1705638751.545683) vcan0 423#18BBA247
(1705638751.550000) vcan0 200#00001400912FB01D
(1705638751.550986) vcan0 1D7#16D5A96E6FE3
(1705638751.555000) vcan0 200#00001400922FB01D
(1705638751.558543) vcan0 3E2#C3
(1705638751.560000) vcan0 200#00001400562FB01D
(1705638751.561517) vcan0 216#50A454
(1705638751.565000) vcan0 200#00001400FF2EB01D
(1705638751.569733) vcan0 4B5#2A16807714
(1705638751.570000) vcan0 200#000014000B2FB01D
(1705638751.575000) vcan0 200#00001400882FB01D
(1705638751.580000) vcan0 200#00001400F02EB01D
(1705638751.584604) vcan0 338#1A41
(1705638751.585000) vcan0 200#00001400712FB01D
(1705638751.590000) vcan0 200#00001400A72FB01D
(1705638751.595000) vcan0 200#00001400E02EB01D
(1705638751.597756) vcan0 2CE#CA993140DBDF
(1705638751.600000) vcan0 200#00001400862FB01D
(1705638751.605000) vcan0 200#00001400A82FB01D
(1705638751.607722) vcan0 7FE#41A2D50821
(1705638751.610000) vcan0 200#00001400DA2FB01D
(1705638751.611351) vcan0 69C#A80EE6774752
(1705638751.615000) vcan0 200#00001400E12EB01D
(1705638751.617324) vcan0 267#F7E20F7ECA20
(1705638751.620000) vcan0 200#00001400832FB01D
(1705638751.621416) vcan0 0B4#C20D83A254
(1705638751.625000) vcan0 200#00001400F52EB01D
(1705638751.625127) vcan0 56E#6509
(1705638751.630000) vcan0 200#000014003E2FB01D
(1705638751.635000) vcan0 200#000014002A2FB01D
(1705638751.640000) vcan0 200#000014002A2FB01D
(1705638751.640351) vcan0 229#3C9719EC60D5
(1705638751.645000) vcan0 200#00001400112FB01D
(1705638751.646883) vcan0 1FE#62BB5C
(1705638751.650000) vcan0 200#00001400C62FB01D
(1705638751.655000) vcan0 200#00001400062FB01D
(1705638751.660000) vcan0 200#00001400772FB01D
(1705638751.661469) vcan0 63B#9D5F305EB9DA57
(1705638751.665000) vcan0 200#00001400412FB01D
(1705638751.670000) vcan0 200#00001400C32FB01D
(1705638751.673860) vcan0 72E#0B270B419E0701C2
(1705638751.675000) vcan0 200#000014003A2FB01D
(1705638751.680000) vcan0 200#00001400382FB01D
(1705638751.681345) vcan0 6D4#71B2
(1705638751.685000) vcan0 200#00001400C22FB01D
(1705638751.690000) vcan0 200#00001400372FB01D
(1705638751.690651) vcan0 3D6#4651E743EE02007F
(1705638751.695000) vcan0 200#000014005E2FB01D
(1705638751.698492) vcan0 650#8E9240D43B38
(1705638751.700000) vcan0 200#00001400E42EB01D
(1705638751.703870) vcan0 5F2#C017794673DD
(1705638751.705000) vcan0 200#00001400E22EB01D
(1705638751.708002) vcan0 403#595E220A
(1705638751.710000) vcan0 200#00001400FA2EB01D
(1705638751.715000) vcan0 200#000014008E2FB01D
(1705638751.720000) vcan0 200#00001400DE2FB01D
(1705638751.723612) vcan0 405#EA6AE02598F5
(1705638751.725000) vcan0 200#00001400252FB01D
(1705638751.728364) vcan0 2ED#822079
(1705638751.730000) vcan0 200#00001400912FB01D
(1705638751.734903) vcan0 1B6#3642
(1705638751.735000) vcan0 200#00001400492FB01D
(1705638751.740000) vcan0 200#00001400BD2FB01D
(1705638751.745000) vcan0 200#00001400612FB01D
(1705638751.750000) vcan0 200#00001400062FB01D
(1705638751.755000) vcan0 200#000014006E2FB01D
(1705638751.758630) vcan0 6E0#591F2216A54C2D
(1705638751.760000) vcan0 200#00001400AB2FB01D
(1705638751.765000) vcan0 200#00001400C62FB01D
(1705638751.766902) vcan0 532#4404
(1705638751.770000) vcan0 200#000014000E2FB01D
(1705638751.775000) vcan0 200#00001400D62FB01D
(1705638751.779557) vcan0 1BB#BAFA66D901
(1705638751.780000) vcan0 200#00001400D92FB01D
(1705638751.784683) vcan0 633#ED
(1705638751.785000) vcan0 200#00001400262FB01D
(1705638751.787558) vcan0 2FE#8BD8ED
(1705638751.790000) vcan0 200#00001400CF2FB01D
(1705638751.793449) vcan0 635#5C
(1705638751.795000) vcan0 200#00001400A02FB01D
(1705638751.795641) vcan0 444#CE460BD5A89E02
(1705638751.800000) vcan0 200#00001400812FB01D
(1705638751.805000) vcan0 200#00001400442FB01D
(1705638751.809125) vcan0 03D#547C77
(1705638751.810000) vcan0 200#00001400DD2FB01D
(1705638751.814331) vcan0 51B#7685
(1705638751.815000) vcan0 200#00001400AB2FB01D
(1705638751.820000) vcan0 200#00001400282FB01D
(1705638751.820429) vcan0 772#ADB426D3
(1705638751.825000) vcan0 200#00001400822FB01D
(1705638751.830000) vcan0 200#00001400192FB01D
(1705638751.835000) vcan0 200#00001400952FB01D
(1705638751.840000) vcan0 200#00001400252FB01D
(1705638751.842379) vcan0 4EC#7981A397
(1705638751.845000) vcan0 200#00001400B42FB01D
(1705638751.846613) vcan0 325#728F84A3DC425809
(1705638751.850000) vcan0 200#00001400D72FB01D
(1705638751.851437) vcan0 02D#318F
(1705638751.855000) vcan0 200#00001400742FB01D
(1705638751.859591) vcan0 7DE#AF57
(1705638751.860000) vcan0 200#00001400862FB01D
(1705638751.860463) vcan0 01C#B257
(1705638751.865000) vcan0 200#000014004E2FB01D
(1705638751.867491) vcan0 28C#503926774A39
(1705638751.870000) vcan0 200#00001400802FB01D
(1705638751.874261) vcan0 66F#1214
(1705638751.875000) vcan0 200#00001400132FB01D
(1705638751.878639) vcan0 24A#D7AB14
(1705638751.880000) vcan0 200#00001400922FB01D
(1705638751.880679) vcan0 03A#3D71
(1705638751.885000) vcan0 200#00001400BB2FB01D
(1705638751.886040) vcan0 212#B898C11CEE
(1705638751.890000) vcan0 200#00001400532FB01D
(1705638751.895000) vcan0 200#00001400972FB01D
(1705638751.895432) vcan0 7A5#AC816CE89D
(1705638751.900000) vcan0 200#00001400532FB01D
(1705638751.904615) vcan0 3F9#F2DF
(1705638751.905000) vcan0 200#00001400302FB01D
(1705638751.905263) vcan0 323#572A1885510A827B
(1705638751.910000) vcan0 200#00001400F22EB01D
(1705638751.913532) vcan0 6B7#65B2FF6152
(1705638751.915000) vcan0 200#00001400662FB01D
(1705638751.920000) vcan0 200#00001400812FB01D
(1705638751.923187) vcan0 3BC#DBC677CEAFDA
(1705638751.925000) vcan0 200#00001400792FB01D
(1705638751.926632) vcan0 3B9#C169
(1705638751.930000) vcan0 200#00001400232FB01D
(1705638751.933322) vcan0 5B9#5EE9
(1705638751.935000) vcan0 200#00001400FA2EB01D
(1705638751.939706) vcan0 3AA#3D
(1705638751.940000) vcan0 200#00001400D02FB01D
(1705638751.940116) vcan0 16B#234C57128B
(1705638751.945000) vcan0 200#00001400DF2FB01D
(1705638751.950000) vcan0 200#00001400A62FB01D
(1705638751.953959) vcan0 2D8#2391
(1705638751.955000) vcan0 200#000014005B2FB01D
(1705638751.960000) vcan0 200#00001400102FB01D
(1705638751.964571) vcan0 428#521D
(1705638751.965000) vcan0 200#00001400452FB01D
(1705638751.969739) vcan0 0B5#C0EBF6
(1705638751.970000) vcan0 200#00001400892FB01D
(1705638751.974438) vcan0 384#86
(1705638751.975000) vcan0 200#00001400942FB01D
(1705638751.980000) vcan0 200#000014005C2FB01D
(1705638751.982780) vcan0 4E1#9309ADC86771
(1705638751.985000) vcan0 200#00001400C72FB01D
(1705638751.988866) vcan0 34C#C212AF
(1705638751.990000) vcan0 200#00001400D32FB01D
(1705638751.994927) vcan0 11E#AF07
(1705638751.995000) vcan0 200#00001400042FB01D
(1705638751.998610) vcan0 621#AE4E
(1705638752.000000) vcan0 200#00001400142FB01D
(1705638752.004255) vcan0 6CB#0205500EFAD7
(1705638752.005000) vcan0 200#00001400312FB01D
(1705638752.005850) vcan0 01A#6D54424E107FCA
(1705638752.010000) vcan0 200#00001400AE2FB01D
(1705638752.010888) vcan0 662#393ED01E
(1705638752.015000) vcan0 200#00001400892FB01D
(1705638752.015058) vcan0 0F8#930B186DAA2B0C50
(1705638752.020000) vcan0 200#00001400EF2EB01D
(1705638752.021065) vcan0 651#5BB58348B5
(1705638752.025000) vcan0 200#00001400372FB01D
(1705638752.028804) vcan0 700#D2100C
(1705638752.030000) vcan0 200#000014004A2FB01D
(1705638752.035000) vcan0 200#000014004B2FB01D
(1705638752.036560) vcan0 705#10BECC
(1705638752.040000) vcan0 200#00001400222FB01D
(1705638752.045000) vcan0 200#00001400F52EB01D
(1705638752.049763) vcan0 526#86A5B6AD4AB9
(1705638752.050000) vcan0 200#01001400DA2FB01D
(1705638752.051673) vcan0 4F6#BF2A2314AE4D
(1705638752.055000) vcan0 200#01001400102FB01D
(1705638752.055145) vcan0 1B7#C21D0E74
(1705638752.060000) vcan0 200#01001400D62FB01D
(1705638752.065000) vcan0 200#010014006F2FB01D
(1705638752.066345) vcan0 55F#F05E
(1705638752.070000) vcan0 200#01001400652FB01D
(1705638752.070885) vcan0 764#68AD13AD625B
(1705638752.075000) vcan0 200#01001400A22FB01D
(1705638752.076627) vcan0 520#13DF
(1705638752.080000) vcan0 200#01001400852FB01D
(1705638752.081941) vcan0 276#F9C45604AE48E2
(1705638752.085000) vcan0 200#02001400D32FB01D
(1705638752.090000) vcan0 200#020014001A2FB01D
(1705638752.092851) vcan0 3FE#46
(1705638752.095000) vcan0 200#020014001B2FB01D
(1705638752.095262) vcan0 28F#D69676A0BC6C6C
(1705638752.100000) vcan0 200#02001400A22FB01D
(1705638752.103130) vcan0 6CC#7558
(1705638752.105000) vcan0 200#02001400962FB01D
(1705638752.110000) vcan0 200#020014004B2FB01D
(1705638752.114198) vcan0 2F6#3C2B625C4756F635
(1705638752.115000) vcan0 200#02001400D22FB01D
(1705638752.120000) vcan0 200#020014009D2FB01D
(1705638752.125000) vcan0 200#03001400CF2FB01D
(1705638752.127264) vcan0 059#9EB52E80D5
(1705638752.130000) vcan0 200#03001400802FB01D
(1705638752.135000) vcan0 200#03001400702FB01D
(1705638752.140000) vcan0 200#03001400632FB01D
(1705638752.145000) vcan0 200#030014009C2FB01D
(1705638752.146339) vcan0 158#DBE9A735B0FBDE51
(1705638752.150000) vcan0 200#03001400412FB01D
(1705638752.151069) vcan0 7AB#5E40ED776B4AFB
(1705638752.155000) vcan0 200#030014005C2FB01D
(1705638752.160000) vcan0 200#03001400E72EB01D
(1705638752.161217) vcan0 449#C5
(1705638752.165000) vcan0 200#04001400422FB01D
(1705638752.167336) vcan0 11E#F801A0EB25B0D5
(1705638752.170000) vcan0 200#04001400412FB01D
(1705638752.173076) vcan0 2B2#6D882C01A808B3
(1705638752.175000) vcan0 200#04001400D52FB01D
(1705638752.175056) vcan0 251#AF8B
(1705638752.180000) vcan0 200#04001400F12EB01D
(1705638752.182823) vcan0 59F#50CC
(1705638752.185000) vcan0 200#04001400802FB01D
(1705638752.188326) vcan0 628#F4AF4605B4
(1705638752.190000) vcan0 200#040014007C2FB01D
(1705638752.195000) vcan0 200#04001400DD2FB01D
(1705638752.199062) vcan0 5ED#E20F8E24
(1705638752.200000) vcan0 200#05001400032FB01D
(1705638752.205000) vcan0 200#05001400BC2FB01D
(1705638752.210000) vcan0 200#05001400DE2FB01D
(1705638752.214619) vcan0 0D9#0373
(1705638752.215000) vcan0 200#050014006B2FB01D
(1705638752.219130) vcan0 63E#1C6F0609
(1705638752.220000) vcan0 200#05001400732FB01D
(1705638752.225000) vcan0 200#05001400422FB01D
(1705638752.228155) vcan0 539#6739235B8969
(1705638752.230000) vcan0 200#05001400DF2FB01D
(1705638752.231486) vcan0 3C4#5BEFE4B1B98EB11D
(1705638752.235000) vcan0 200#05001400DE2FB01D
(1705638752.240000) vcan0 200#06001400022FB01D
(1705638752.242912) vcan0 3AF#C26C463C
(1705638752.245000) vcan0 200#06001400F12EB01D
(1705638752.250000) vcan0 200#06001400032FB01D
(1705638752.250777) vcan0 4F3#B19CDE
(1705638752.255000) vcan0 200#060014009B2FB01D
(1705638752.260000) vcan0 200#060014008C2FB01D
(1705638752.261654) vcan0 3C2#F95E627890BC
(1705638752.265000) vcan0 200#06001400302FB01D
(1705638752.268911) vcan0 1C3#627F86E1
(1705638752.270000) vcan0 200#06001400532FB01D
(1705638752.275000) vcan0 200#060014000A2FB01D
(1705638752.277761) vcan0 7CA#F6
(1705638752.280000) vcan0 200#070014003D2FB01D
(1705638752.284616) vcan0 49D#30098D42C032BF
(1705638752.285000) vcan0 200#07001400852FB01D
(1705638752.288254) vcan0 693#A6F77CF4A2F21DC3
(1705638752.290000) vcan0 200#07001400AF2FB01D
(1705638752.292119) vcan0 762#E0E43947
(1705638752.295000) vcan0 200#07001400CA2FB01D
(1705638752.300000) vcan0 200#07001400612FB01D
(1705638752.305000) vcan0 200#07001400912FB01D
(1705638752.310000) vcan0 200#070014006A2FB01D
(1705638752.310231) vcan0 400#11877D4B
(1705638752.315000) vcan0 200#08001400542FB01D
(1705638752.319158) vcan0 73A#6C44
(1705638752.320000) vcan0 200#08001400B62FB01D
(1705638752.324060) vcan0 0B3#CF05
(1705638752.325000) vcan0 200#08001400322FB01D
(1705638752.329211) vcan0 5F2#E20CEA902F9708
(1705638752.330000) vcan0 200#08001400E12EB01D
(1705638752.335000) vcan0 200#08001400942FB01D
(1705638752.340000) vcan0 200#08001400952FB01D
(1705638752.341338) vcan0 549#2F
(1705638752.345000) vcan0 200#08001400E92EB01D
(1705638752.345842) vcan0 7D4#AE
(1705638752.350000) vcan0 200#08001400FC2EB01D
(1705638752.355000) vcan0 200#09001400CC2FB01D
(1705638752.360000) vcan0 200#09001400A22FB01D
(1705638752.360370) vcan0 4D1#0A611C16
(1705638752.365000) vcan0 200#09001400672FB01D
(1705638752.370000) vcan0 200#09001400552FB01D
(1705638752.374121) vcan0 4BD#03F5E7
(1705638752.375000) vcan0 200#09001400CE2FB01D
(1705638752.377623) vcan0 278#1CA162
(1705638752.380000) vcan0 200#09001400BE2FB01D
(1705638752.380191) vcan0 1FE#C11000DA2A0978
(1705638752.385000) vcan0 200#09001400A62FB01D
(1705638752.386566) vcan0 50C#79D02D5930F581
(1705638752.390000) vcan0 200#090014003A2FB01D
(1705638752.395000) vcan0 200#0A0014006D2FB01D
(1705638752.400000) vcan0 200#0A001400612FB01D
(1705638752.405000) vcan0 200#0A001400F82EB01D
(1705638752.408324) vcan0 30F#E9
(1705638752.410000) vcan0 200#0A001400BC2FB01D
(1705638752.415000) vcan0 200#0A0014009E2FB01D
(1705638752.418380) vcan0 7A4#1D14DE218BF8
(1705638752.420000) vcan0 200#0A0014003C2FB01D
(1705638752.421027) vcan0 32C#6AAF0C
(1705638752.425000) vcan0 200#0A001400072FB01D
(1705638752.430000) vcan0 200#0A001400DA2FB01D
(1705638752.432799) vcan0 0EC#ECF9A83A65
(1705638752.435000) vcan0 200#0B001400BA2FB01D
(1705638752.438728) vcan0 1F0#60CF5FBE04
(1705638752.440000) vcan0 200#0B001400842FB01D
(1705638752.445000) vcan0 200#0B0014003C2FB01D
(1705638752.447147) vcan0 0C8#C5C3CA922D
(1705638752.450000) vcan0 200#0B001400EF2EB01D
(1705638752.452733) vcan0 003#C1C36E4B5C
(1705638752.455000) vcan0 200#0B001400B92FB01D
(1705638752.455095) vcan0 7C0#5467C7263C
(1705638752.460000) vcan0 200#0B001400872FB01D
(1705638752.460770) vcan0 504#87
(1705638752.465000) vcan0 200#0B0014002F2FB01D
(1705638752.467875) vcan0 4B0#392658
(1705638752.470000) vcan0 200#0C001400612FB01D
(1705638752.475000) vcan0 200#0C001400852FB01D
(1705638752.478044) vcan0 510#CB7B48C62B
(1705638752.480000) vcan0 200#0C001400442FB01D
(1705638752.481333) vcan0 5F2#3475103D83D3
(1705638752.485000) vcan0 200#0C001400FF2EB01D
(1705638752.487067) vcan0 197#D6
(1705638752.490000) vcan0 200#0C0014007C2FB01D
(1705638752.495000) vcan0 200#0C001400B02FB01D
(1705638752.500000) vcan0 200#0C001400FE2EB01D
(1705638752.501550) vcan0 055#2F93D09E52C552C2
(1705638752.505000) vcan0 200#0C0014009A2FB01D
(1705638752.510000) vcan0 200#0D001400772FB01D
(1705638752.514461) vcan0 672#49F62092A64BDC44
(1705638752.515000) vcan0 200#0D001400762FB01D
(1705638752.517300) vcan0 032#E5871DB47F659AB5
(1705638752.520000) vcan0 200#0D001400F62EB01D
(1705638752.525000) vcan0 200#0D001400D52FB01D
(1705638752.530000) vcan0 200#0D001400C02FB01D
(1705638752.530314) vcan0 02F#7E714D2BAE8342
(1705638752.535000) vcan0 200#0D001400992FB01D
(1705638752.537578) vcan0 586#1726424836
(1705638752.540000) vcan0 200#0D0014000B2FB01D
(1705638752.543513) vcan0 3C0#E6034A11732395
(1705638752.545000) vcan0 200#0D001400DD2FB01D
(1705638752.550000) vcan0 200#0E0014003F2FB01D
(1705638752.551513) vcan0 3D6#EECD892DB7
(1705638752.555000) vcan0 200#0E001400162FB01D
(1705638752.560000) vcan0 200#0E001400C92FB01D
(1705638752.564137) vcan0 3EB#57FE0D7D0423
(1705638752.565000) vcan0 200#0E0014001F2FB01D
(1705638752.569544) vcan0 46A#768C6C38F79E
(1705638752.570000) vcan0 200#0E001400832FB01D
(1705638752.573929) vcan0 06E#0C
(1705638752.575000) vcan0 200#0E001400AD2FB01D
(1705638752.577838) vcan0 715#9CFDEE2A4DC6
(1705638752.580000) vcan0 200#0E001400A12FB01D
(1705638752.585000) vcan0 200#0F001400DE2FB01D
(1705638752.590000) vcan0 200#0F001400062FB01D
(1705638752.594347) vcan0 517#97875688620A4B3D
(1705638752.595000) vcan0 200#0F001400C92FB01D
(1705638752.596689) vcan0 334#B468DE
(1705638752.600000) vcan0 200#0F001400092FB01D
(1705638752.602819) vcan0 27D#805AAD694C9B
(1705638752.605000) vcan0 200#0F0014006A2FB01D
(1705638752.610000) vcan0 200#0F001400092FB01D
(1705638752.614248) vcan0 01C#B4
(1705638752.615000) vcan0 200#0F001400802FB01D
(1705638752.616072) vcan0 428#7CAE0EC4FC8A91AC
(1705638752.620000) vcan0 200#0F001400442FB01D
(1705638752.625000) vcan0 200#100014005C2FB01D
(1705638752.629873) vcan0 209#B702
(1705638752.630000) vcan0 200#10001400222FB01D
(1705638752.632849) vcan0 18E#887DC25124F4
(1705638752.635000) vcan0 200#10001400AD2FB01D
(1705638752.640000) vcan0 200#10001400282FB01D
(1705638752.643632) vcan0 502#0666
(1705638752.645000) vcan0 200#10001400762FB01D
(1705638752.648162) vcan0 0E8#3B26E4B5
(1705638752.650000) vcan0 200#10001400262FB01D
(1705638752.655000) vcan0 200#10001400502FB01D
(1705638752.660000) vcan0 200#10001400F32EB01D
(1705638752.664343) vcan0 290#C4EBC9703C9321
(1705638752.665000) vcan0 200#11001400212FB01D
(1705638752.668767) vcan0 4B8#50096020BA
(1705638752.670000) vcan0 200#11001400742FB01D
(1705638752.675000) vcan0 200#11001400452FB01D
(1705638752.680000) vcan0 200#11001400292FB01D
(1705638752.681269) vcan0 2C3#8729971B0DFA
(1705638752.685000) vcan0 200#11001400952FB01D
(1705638752.688898) vcan0 1B9#D830FBBD1F58DA08
(1705638752.690000) vcan0 200#11001400F62EB01D
(1705638752.695000) vcan0 200#11001400592FB01D
(1705638752.700000) vcan0 200#120014003D2FB01D
(1705638752.705000) vcan0 200#12001400392FB01D
(1705638752.706531) vcan0 4E8#9E57
(1705638752.710000) vcan0 200#120014000C2FB01D
(1705638752.715000) vcan0 200#12001400F62EB01D
(1705638752.719502) vcan0 15E#E95393C7
(1705638752.720000) vcan0 200#12001400CD2FB01D
(1705638752.725000) vcan0 200#120014000F2FB01D
(1705638752.725328) vcan0 4B8#B16C3D
(1705638752.730000) vcan0 200#12001400882FB01D
(1705638752.735000) vcan0 200#12001400142FB01D
(1705638752.740000) vcan0 200#13001400D92FB01D
(1705638752.744464) vcan0 53D#EA6E9181EE11
(1705638752.745000) vcan0 200#13001400C82FB01D
(1705638752.745582) vcan0 1FD#142FC9558815
(1705638752.750000) vcan0 200#130014005E2FB01D
(1705638752.750110) vcan0 3E7#C6
(1705638752.755000) vcan0 200#13001400B32FB01D
(1705638752.755474) vcan0 711#32155F1F1DB3EA1B
(1705638752.760000) vcan0 200#13001400002FB01D
(1705638752.765000) vcan0 200#13001400552FB01D
(1705638752.770000) vcan0 200#13001400A92FB01D
(1705638752.775000) vcan0 200#130014001E2FB01D
(1705638752.776663) vcan0 446#E6
(1705638752.780000) vcan0 200#14001400C42FB01D
(1705638752.782783) vcan0 0AE#487FFCEA9B9A
(1705638752.785000) vcan0 200#140014007C2FB01D
(1705638752.787945) vcan0 080#4CC73C9A4C
(1705638752.790000) vcan0 200#14001400DD2FB01D
(1705638752.793849) vcan0 7DF#A7A27C7486D3
(1705638752.795000) vcan0 200#14001400F92EB01D
(1705638752.799332) vcan0 152#E97251F6
(1705638752.800000) vcan0 200#14001400B62FB01D
(1705638752.801484) vcan0 5CF#978BEA1792
(1705638752.805000) vcan0 200#14001400172FB01D
(1705638752.807217) vcan0 335#3FBD
(1705638752.810000) vcan0 200#14001400722FB01D
(1705638752.814419) vcan0 3C4#6956989AFB
(1705638752.815000) vcan0 200#150014008E2FB01D
(1705638752.820000) vcan0 200#15001400492FB01D
(1705638752.822397) vcan0 6AA#0305A1B6
(1705638752.825000) vcan0 200#15001400E32EB01D
(1705638752.825897) vcan0 420#6882E24EE24541
(1705638752.830000) vcan0 200#15001400072FB01D
(1705638752.833515) vcan0 7FA#C25A79B27C921F
(1705638752.835000) vcan0 200#150014001C2FB01D
(1705638752.840000) vcan0 200#15001400072FB01D
(1705638752.840806) vcan0 090#EAAAD4B2180964
(1705638752.845000) vcan0 200#150014008D2FB01D
(1705638752.845214) vcan0 53E#83DFB3B5E1A5FB4F
(1705638752.850000) vcan0 200#15001400832FB01D
(1705638752.854543) vcan0 30B#C9A3DA
(1705638752.855000) vcan0 200#160014007A2FB01D
(1705638752.860000) vcan0 200#16001400032FB01D
(1705638752.863852) vcan0 656#1D0C0814
(1705638752.865000) vcan0 200#16001400CD2FB01D
(1705638752.866632) vcan0 714#6F87
(1705638752.870000) vcan0 200#160014000D2FB01D
(1705638752.875000) vcan0 200#16001400482FB01D
(1705638752.880000) vcan0 200#16001400D32FB01D
(1705638752.882490) vcan0 066#F1F91F
(1705638752.885000) vcan0 200#16001400C12FB01D
(1705638752.889221) vcan0 63D#E5AF5D27E3E0CB
(1705638752.890000) vcan0 200#16001400492FB01D
(1705638752.891807) vcan0 59E#79F21A66
(1705638752.895000) vcan0 200#17001400502FB01D
(1705638752.900000) vcan0 200#17001400732FB01D
(1705638752.905000) vcan0 200#17001400292FB01D
(1705638752.910000) vcan0 200#170014009B2FB01D
(1705638752.915000) vcan0 200#17001400462FB01D
(1705638752.919369) vcan0 0C8#5257CE4C746DDB
(1705638752.920000) vcan0 200#17001400952FB01D
(1705638752.920601) vcan0 06C#3946FD24
(1705638752.925000) vcan0 200#170014003B2FB01D
(1705638752.926780) vcan0 561#CC
(1705638752.930000) vcan0 200#170014006A2FB01D
(1705638752.935000) vcan0 200#180014006E2FB01D
(1705638752.935822) vcan0 79E#40E8B3F782DD4D75
(1705638752.940000) vcan0 200#18001400DB2FB01D
(1705638752.945000) vcan0 200#180014002B2FB01D
(1705638752.945265) vcan0 78E#DA874406F7EF
(1705638752.950000) vcan0 200#18001400462FB01D
(1705638752.954690) vcan0 7C1#7A
(1705638752.955000) vcan0 200#18001400A62FB01D
(1705638752.958716) vcan0 263#9E
(1705638752.960000) vcan0 200#18001400FC2EB01D
(1705638752.965000) vcan0 200#18001400A12FB01D
(1705638752.970000) vcan0 200#19001400D52FB01D
(1705638752.970292) vcan0 0C4#E5BC4A22DF37
(1705638752.975000) vcan0 200#19001400F42EB01D
(1705638752.975727) vcan0 2D0#BB60E5E7DE07
(1705638752.980000) vcan0 200#190014002F2FB01D
(1705638752.984935) vcan0 0B5#6E3F8564
(1705638752.985000) vcan0 200#19001400CD2FB01D
(1705638752.987861) vcan0 018#B988C0
(1705638752.990000) vcan0 200#19001400DF2FB01D
(1705638752.992576) vcan0 09D#4371D7AA
(1705638752.995000) vcan0 200#19001400032FB01D
(1705638753.000000) vcan0 200#19001400F62EB01D
(1705638753.004640) vcan0 016#7202117A409642
(1705638753.005000) vcan0 200#1900ECFF492FB01D
(1705638753.010000) vcan0 200#1A00ECFF282FB01D
(1705638753.011714) vcan0 7F4#256C
(1705638753.015000) vcan0 200#1A00ECFFD12FB01D
(1705638753.015144) vcan0 3DE#750C06E76A3EC6
(1705638753.020000) vcan0 200#1A00ECFF932FB01D
(1705638753.025000) vcan0 200#1A00ECFF302FB01D
(1705638753.030000) vcan0 200#1A00ECFF3C2FB01D
(1705638753.035000) vcan0 200#1A00ECFF822FB01D
(1705638753.040000) vcan0 200#1A00ECFFB72FB01D
(1705638753.040994) vcan0 5A6#EBB906C6
(1705638753.045000) vcan0 200#1A00ECFF602FB01D
(1705638753.048938) vcan0 31F#899D303D0F
(1705638753.050000) vcan0 200#1A00ECFF132FB01D
(1705638753.055000) vcan0 200#1A00ECFF6B2FB01D
(1705638753.056759) vcan0 16B#9DEA6CBB5AA837
(1705638753.060000) vcan0 200#1A00ECFF422FB01D
(1705638753.065000) vcan0 200#1A00ECFF082FB01D
(1705638753.070000) vcan0 200#1A00ECFF842FB01D
(1705638753.075000) vcan0 200#1A00ECFFE62EB01D
(1705638753.075572) vcan0 0D6#FD98387190D5
(1705638753.080000) vcan0 200#1A00ECFFD42FB01D
(1705638753.085000) vcan0 200#1A00ECFFC42FB01D
(1705638753.087093) vcan0 78B#68D0BC
(1705638753.090000) vcan0 200#1A00ECFF0F2FB01D
(1705638753.091020) vcan0 42A#FE826AB0BB
(1705638753.095000) vcan0 200#1A00ECFF5F2FB01D
(1705638753.097692) vcan0 173#9D498A
(1705638753.100000) vcan0 200#1A00ECFF712FB01D
(1705638753.101020) vcan0 678#3B
(1705638753.105000) vcan0 200#1A00ECFF782FB01D
(1705638753.108779) vcan0 330#936EF8CA8FB1C8
(1705638753.110000) vcan0 200#1A00ECFF072FB01D
(1705638753.110879) vcan0 5CB#9DA26C6EE8402C
(1705638753.115000) vcan0 200#1A00ECFF2B2FB01D
(1705638753.118005) vcan0 1C9#B1DB82D7
(1705638753.120000) vcan0 200#1A00ECFFB92FB01D
(1705638753.123874) vcan0 0BD#F5BB88D98A
(1705638753.125000) vcan0 200#1A00ECFF592FB01D
(1705638753.126413) vcan0 1B4#30818B4B770A52
(1705638753.130000) vcan0 200#1A00ECFF4F2FB01D
(1705638753.134419) vcan0 58B#723E18400CC0
(1705638753.135000) vcan0 200#1A00ECFFA82FB01D
(1705638753.140000) vcan0 200#1A00ECFF482FB01D
(1705638753.140182) vcan0 775#BE8E895178
(1705638753.145000) vcan0 200#1A00ECFF182FB01D
(1705638753.145357) vcan0 014#71ED2D
(1705638753.150000) vcan0 200#1A00ECFFA02FB01D
(1705638753.151585) vcan0 1F6#29
(1705638753.155000) vcan0 200#1A00ECFFFD2EB01D
(1705638753.160000) vcan0 200#1A00ECFF542FB01D
(1705638753.163299) vcan0 540#AD7204B0A4
(1705638753.165000) vcan0 200#1A00ECFF622FB01D
(1705638753.170000) vcan0 200#1A00ECFF8D2FB01D
(1705638753.174490) vcan0 21D#4FF61D58ECE2
(1705638753.175000) vcan0 200#1A00ECFFE32EB01D
(1705638753.180000) vcan0 200#1A00ECFFCB2FB01D
(1705638753.182110) vcan0 7ED#1A
(1705638753.185000) vcan0 200#1A00ECFF562FB01D
(1705638753.187198) vcan0 18B#7A
(1705638753.190000) vcan0 200#1A00ECFF372FB01D
(1705638753.192098) vcan0 128#70B3
(1705638753.195000) vcan0 200#1A00ECFF982FB01D
(1705638753.197332) vcan0 712#F0
(1705638753.200000) vcan0 200#1A00ECFF0B2FB01D
(1705638753.201199) vcan0 579#A60BE9A9589EFC
(1705638753.205000) vcan0 200#1A00ECFF032FB01D
(1705638753.206251) vcan0 0BD#B5322B0753
(1705638753.210000) vcan0 200#1A00ECFF322FB01D
(1705638753.211700) vcan0 4C3#8FD1FFD4FF5B
(1705638753.215000) vcan0 200#1A00ECFF0D2FB01D
(1705638753.216589) vcan0 46C#D343667C
(1705638753.220000) vcan0 200#1A00ECFF772FB01D
(1705638753.223395) vcan0 36F#9FE229
(1705638753.225000) vcan0 200#1A00ECFF562FB01D
(1705638753.230000) vcan0 200#1A00ECFF772FB01D
(1705638753.231169) vcan0 256#42F8
(1705638753.235000) vcan0 200#1A00ECFF6E2FB01D
(1705638753.235045) vcan0 483#1E77464211E9FEA3
(1705638753.240000) vcan0 200#1A00ECFFB22FB01D
(1705638753.243800) vcan0 54F#256E7EA6FFFB63
(1705638753.245000) vcan0 200#1A00ECFFD02FB01D
(1705638753.250000) vcan0 200#1A00ECFF152FB01D
(1705638753.253555) vcan0 567#34B285A9944634
(1705638753.255000) vcan0 200#1A00ECFF322FB01D
(1705638753.260000) vcan0 200#1A00ECFF462FB01D
(1705638753.265000) vcan0 200#1A00ECFFD12FB01D
(1705638753.270000) vcan0 200#1A00ECFF7C2FB01D
(1705638753.275000) vcan0 200#1A00ECFF622FB01D
(1705638753.278736) vcan0 61C#F3
(1705638753.280000) vcan0 200#1A00ECFF052FB01D
(1705638753.285000) vcan0 200#1A00ECFFB22FB01D
(1705638753.290000) vcan0 200#1A00ECFF9B2FB01D
(1705638753.295000) vcan0 200#1A00ECFFBE2FB01D
(1705638753.295084) vcan0 560#9EBB78
(1705638753.300000) vcan0 200#1A00ECFFB92FB01D
(1705638753.303275) vcan0 7C4#2C3C1148
(1705638753.305000) vcan0 200#1A00ECFFE72EB01D
(1705638753.306838) vcan0 2EB#207868
(1705638753.310000) vcan0 200#1A00ECFFD52FB01D
(1705638753.311375) vcan0 164#390234C49EE51B14
(1705638753.315000) vcan0 200#1A00ECFF852FB01D
(1705638753.320000) vcan0 200#1A00ECFFE92EB01D
(1705638753.325000) vcan0 200#1A00ECFFFE2EB01D
(1705638753.328698) vcan0 4E6#2A74B17FBD
(1705638753.330000) vcan0 200#1A00ECFF022FB01D
(1705638753.335000) vcan0 200#1A00ECFFF62EB01D
(1705638753.335026) vcan0 32D#AE03CA4884BE89D5
(1705638753.340000) vcan0 200#1A00ECFF272FB01D
(1705638753.344614) vcan0 77B#A5AABC545AFD
(1705638753.345000) vcan0 200#1A00ECFF182FB01D
(1705638753.347704) vcan0 634#87
(1705638753.350000) vcan0 200#1A00ECFFC72FB01D
(1705638753.355000) vcan0 200#1A00ECFF632FB01D
(1705638753.355291) vcan0 362#2975BFBF112C
(1705638753.360000) vcan0 200#1A00ECFFD92FB01D
(1705638753.364323) vcan0 5AC#47A714FBC0
(1705638753.365000) vcan0 200#1A00ECFF9A2FB01D
(1705638753.370000) vcan0 200#1A00ECFFC92FB01D
(1705638753.374998) vcan0 3D1#D6C4
(1705638753.375000) vcan0 200#1A00ECFFCC2FB01D
(1705638753.380000) vcan0 200#1A00ECFF452FB01D
(1705638753.385000) vcan0 200#1A00ECFFBF2FB01D
(1705638753.389313) vcan0 40B#6A121BFBC4DD6DD2
(1705638753.390000) vcan0 200#1A00ECFFA12FB01D
(1705638753.390780) vcan0 67F#98269E9A58B6
(1705638753.395000) vcan0 200#1A00ECFF452FB01D
(1705638753.400000) vcan0 200#1A00ECFFBE2FB01D
(1705638753.400446) vcan0 090#18DC2290
(1705638753.405000) vcan0 200#1A00ECFFC62FB01D
(1705638753.410000) vcan0 200#1A00ECFFDB2FB01D
(1705638753.415000) vcan0 200#1A00ECFF392FB01D
(1705638753.416420) vcan0 1CB#BEDA4BDD
(1705638753.420000) vcan0 200#1A00ECFF732FB01D
(1705638753.422807) vcan0 01E#E9630560260E
(1705638753.425000) vcan0 200#1A00ECFF1D2FB01D
(1705638753.429031) vcan0 420#8B12372D9925
(1705638753.430000) vcan0 200#1A00ECFFC12FB01D
(1705638753.433114) vcan0 47B#783500C49E7BAE
(1705638753.435000) vcan0 200#1A00ECFF432FB01D
(1705638753.440000) vcan0 200#1A00ECFFD42FB01D
(1705638753.445000) vcan0 200#1A00ECFFC72FB01D
(1705638753.448714) vcan0 7AC#02D2D71FB63270
(1705638753.450000) vcan0 200#1A00ECFFD92FB01D
(1705638753.455000) vcan0 200#1A00ECFF3C2FB01D
(1705638753.460000) vcan0 200#1A00ECFF2F2FB01D
(1705638753.465000) vcan0 200#1A00ECFF942FB01D
(1705638753.470000) vcan0 200#1A00ECFFAA2FB01D
(1705638753.473734) vcan0 366#14CEB9B2
(1705638753.475000) vcan0 200#1A00ECFF572FB01D
(1705638753.477528) vcan0 7FD#A328BB29B68ADDD5
(1705638753.480000) vcan0 200#1A00ECFF8C2FB01D
(1705638753.485000) vcan0 200#1A00ECFFEF2EB01D
(1705638753.488727) vcan0 118#B9D52A213C41BD
(1705638753.490000) vcan0 200#1A00ECFF382FB01D
(1705638753.492388) vcan0 137#2DF2ABC6E899AF
(1705638753.495000) vcan0 200#1A00ECFF132FB01D
(1705638753.498072) vcan0 076#E769A8EFB3A2ABBD
(1705638753.500000) vcan0 200#1A00ECFF652FB01D
(1705638753.504792) vcan0 323#4B126F7B
(1705638753.505000) vcan0 200#1A00ECFFE02EB01D
(1705638753.509228) vcan0 22D#5F71A4
(1705638753.510000) vcan0 200#1A00ECFF142FB01D
(1705638753.513125) vcan0 424#EFCEC7B46E
(1705638753.515000) vcan0 200#1A00ECFF482FB01D
(1705638753.520000) vcan0 200#1A00ECFFC92FB01D
(1705638753.525000) vcan0 200#1A00ECFF6D2FB01D
(1705638753.525112) vcan0 6D2#C9DEB00099
(1705638753.530000) vcan0 200#1A00ECFF692FB01D
(1705638753.532350) vcan0 637#13447FEE6C
(1705638753.535000) vcan0 200#1A00ECFFC32FB01D
(1705638753.536521) vcan0 4E9#4221C5
(1705638753.540000) vcan0 200#1A00ECFFDA2FB01D
(1705638753.542255) vcan0 073#B76BE50E3C6ED7
(1705638753.545000) vcan0 200#1A00ECFFB42FB01D
(1705638753.546656) vcan0 765#91C98DD16495
(1705638753.550000) vcan0 200#1A00ECFF562FB01D
(1705638753.554500) vcan0 6B5#0EE71F
(1705638753.555000) vcan0 200#1A00ECFFA82FB01D
(1705638753.556611) vcan0 140#48998327FC
(1705638753.560000) vcan0 200#1A00ECFFB22FB01D
(1705638753.562585) vcan0 033#4D68E36367
(1705638753.565000) vcan0 200#1A00ECFFA82FB01D
(1705638753.570000) vcan0 200#1A00ECFF4C2FB01D
(1705638753.571060) vcan0 12D#D0
(1705638753.575000) vcan0 200#1A00ECFFF12EB01D
(1705638753.578257) vcan0 069#E0
(1705638753.580000) vcan0 200#1A00ECFFE22EB01D
(1705638753.581390) vcan0 0D4#8B159C
(1705638753.585000) vcan0 200#1A00ECFFAD2FB01D
(1705638753.587796) vcan0 5D1#0976
(1705638753.590000) vcan0 200#1A00ECFFC12FB01D
(1705638753.593458) vcan0 0A7#BFE8C7EB478A
(1705638753.595000) vcan0 200#1A00ECFF112FB01D
(1705638753.595628) vcan0 506#27196134
(1705638753.600000) vcan0 200#1A00ECFF022FB01D
(1705638753.600519) vcan0 40D#686F
(1705638753.605000) vcan0 200#1A00ECFF1F2FB01D
(1705638753.610000) vcan0 200#1A00ECFF1D2FB01D
(1705638753.611951) vcan0 22A#7489BE
(1705638753.615000) vcan0 200#1A00ECFF252FB01D
(1705638753.620000) vcan0 200#1A00ECFF3A2FB01D
(1705638753.621464) vcan0 573#37229EA3B499FF
(1705638753.625000) vcan0 200#1A00ECFFF42EB01D
(1705638753.627376) vcan0 278#B03ADE92E5A54683
(1705638753.630000) vcan0 200#1A00ECFFBF2FB01D
(1705638753.635000) vcan0 200#1A00ECFFE92EB01D
(1705638753.640000) vcan0 200#1A00ECFF952FB01D
(1705638753.645000) vcan0 200#1A00ECFF4C2FB01D
(1705638753.648127) vcan0 203#B041A0E30A8D
(1705638753.650000) vcan0 200#1A00ECFF6B2FB01D
(1705638753.655000) vcan0 200#1A00ECFF952FB01D
(1705638753.655792) vcan0 7FB#38
(1705638753.660000) vcan0 200#1A00ECFF652FB01D
(1705638753.661873) vcan0 2C8#7B
(1705638753.665000) vcan0 200#1A00ECFF0D2FB01D
(1705638753.668201) vcan0 21B#3457CA
(1705638753.670000) vcan0 200#1A00ECFF6F2FB01D
(1705638753.673167) vcan0 1C7#25F7
(1705638753.675000) vcan0 200#1A00ECFF6A2FB01D
(1705638753.676765) vcan0 44A#3159664969
(1705638753.680000) vcan0 200#1A00ECFF2D2FB01D
(1705638753.681507) vcan0 691#91FBB6
(1705638753.685000) vcan0 200#1A00ECFF352FB01D
(1705638753.685887) vcan0 649#C73DAE16
(1705638753.690000) vcan0 200#1A00ECFFB72FB01D
(1705638753.692049) vcan0 095#FCE5CC417503
(1705638753.695000) vcan0 200#1A00ECFF552FB01D
(1705638753.697941) vcan0 34F#D1D057
(1705638753.700000) vcan0 200#1A00ECFF8C2FB01D
(1705638753.704112) vcan0 113#A9
(1705638753.705000) vcan0 200#1A00ECFF932FB01D
(1705638753.710000) vcan0 200#1A00ECFF142FB01D
(1705638753.714557) vcan0 3DF#BDC74813582A
(1705638753.715000) vcan0 200#1A00ECFFFE2EB01D
(1705638753.720000) vcan0 200#1A00ECFF1D2FB01D
(1705638753.725000) vcan0 200#1A00ECFF4B2FB01D
(1705638753.730000) vcan0 200#1A00ECFF5F2FB01D
(1705638753.733371) vcan0 286#68934A4BF01965A3
(1705638753.735000) vcan0 200#1A00ECFF1C2FB01D
(1705638753.739311) vcan0 35A#D61F
(1705638753.740000) vcan0 200#1A00ECFF872FB01D
(1705638753.745000) vcan0 200#1A00ECFFBF2FB01D
(1705638753.747314) vcan0 219#C1B4D65EFF4E58F1
(1705638753.750000) vcan0 200#1A00ECFF412FB01D
(1705638753.754632) vcan0 4A6#59
(1705638753.755000) vcan0 200#1A00ECFF0B2FB01D
(1705638753.758800) vcan0 13B#FA0BBF1E0FBD94
(1705638753.760000) vcan0 200#1A00ECFF062FB01D
(1705638753.760439) vcan0 49A#34085E5E8C
(1705638753.765000) vcan0 200#1A00ECFFDB2FB01D
(1705638753.770000) vcan0 200#1A00ECFF0B2FB01D
(1705638753.774832) vcan0 4C9#8939
(1705638753.775000) vcan0 200#1A00ECFF062FB01D
(1705638753.779050) vcan0 2B2#143B273AF835
(1705638753.780000) vcan0 200#1A00ECFF7F2FB01D
(1705638753.783497) vcan0 5BF#35
(1705638753.785000) vcan0 200#1A00ECFF892FB01D
(1705638753.789955) vcan0 284#A8
(1705638753.790000) vcan0 200#1A00ECFFAD2FB01D
(1705638753.792790) vcan0 39D#076CAB4DF7D9
(1705638753.795000) vcan0 200#1A00ECFF112FB01D
(1705638753.797331) vcan0 1A2#DFBF
(1705638753.800000) vcan0 200#1A00ECFF4D2FB01D
(1705638753.804419) vcan0 45D#2898A2B171
(1705638753.805000) vcan0 200#1A00ECFFB02FB01D
(1705638753.806086) vcan0 05C#5CE3A7D623B5
(1705638753.810000) vcan0 200#1A00ECFF9A2FB01D
(1705638753.815000) vcan0 200#1A00ECFFFF2EB01D
(1705638753.820000) vcan0 200#1A00ECFF772FB01D
(1705638753.820011) vcan0 5FE#7B
(1705638753.825000) vcan0 200#1A00ECFFEE2EB01D
(1705638753.828948) vcan0 24B#DE99F6
(1705638753.830000) vcan0 200#1A00ECFFEF2EB01D
(1705638753.835000) vcan0 200#1A00ECFF582FB01D
(1705638753.836927) vcan0 3BA#46C5C4C71B6429
(1705638753.840000) vcan0 200#1A00ECFF402FB01D
(1705638753.844192) vcan0 213#F7644C
(1705638753.845000) vcan0 200#1A00ECFFBE2FB01D
(1705638753.849793) vcan0 317#BC1251713419B0
(1705638753.850000) vcan0 200#1A00ECFF0B2FB01D
(1705638753.855000) vcan0 200#1A00ECFF312FB01D
(1705638753.860000) vcan0 200#1A00ECFF812FB01D
(1705638753.865000) vcan0 200#1A00ECFF992FB01D
(1705638753.866215) vcan0 4D9#CB3D2D
(1705638753.870000) vcan0 200#1A00ECFFFA2EB01D
(1705638753.875000) vcan0 200#1A00ECFFA92FB01D
(1705638753.880000) vcan0 200#1A00ECFF292FB01D
(1705638753.883990) vcan0 279#71AABA08BF
(1705638753.885000) vcan0 200#1A00ECFF7D2FB01D
(1705638753.886092) vcan0 6B8#C4AB0D87
(1705638753.890000) vcan0 200#1A00ECFF092FB01D
(1705638753.895000) vcan0 200#1A00ECFF352FB01D
(1705638753.898735) vcan0 4B8#4B53
(1705638753.900000) vcan0 200#1A00ECFF842FB01D
(1705638753.905000) vcan0 200#1A00ECFFD12FB01D
(1705638753.908934) vcan0 522#20EC7F
(1705638753.910000) vcan0 200#1A00ECFF312FB01D
(1705638753.915000) vcan0 200#1A00ECFF502FB01D
(1705638753.917994) vcan0 2CF#CA
(1705638753.920000) vcan0 200#1A00ECFFF62EB01D
(1705638753.922926) vcan0 4AC#407150E36C69
(1705638753.925000) vcan0 200#1A00ECFF3F2FB01D
(1705638753.927213) vcan0 3FE#6730BB168F665753
(1705638753.930000) vcan0 200#1A00ECFFEE2EB01D
(1705638753.930743) vcan0 25F#8481DBBA613BE856
(1705638753.935000) vcan0 200#1A00ECFFEF2EB01D
(1705638753.940000) vcan0 200#1A00ECFF832FB01D
(1705638753.942963) vcan0 6AB#0B635F696F19
(1705638753.945000) vcan0 200#1A00ECFFC62FB01D
(1705638753.950000) vcan0 200#1A00ECFF422FB01D
(1705638753.952364) vcan0 194#8F723A4E1B
(1705638753.955000) vcan0 200#1A00ECFF712FB01D
(1705638753.958847) vcan0 129#87C8A155
(1705638753.960000) vcan0 200#1A00ECFF352FB01D
(1705638753.964544) vcan0 212#F8E35A6A
(1705638753.965000) vcan0 200#1A00ECFF722FB01D
(1705638753.970000) vcan0 200#1A00ECFF8D2FB01D
(1705638753.973155) vcan0 2B9#59C02988
(1705638753.975000) vcan0 200#1A00ECFFBC2FB01D
(1705638753.978833) vcan0 556#DBDC16456563
(1705638753.980000) vcan0 200#1A00ECFF272FB01D
(1705638753.981830) vcan0 79D#90D47FFB9F
(1705638753.985000) vcan0 200#1A00ECFFD82FB01D
(1705638753.985683) vcan0 161#A75A7D2FDF
(1705638753.990000) vcan0 200#1A00ECFF6D2FB01D
(1705638753.995000) vcan0 200#1A00ECFF652FB01D
(1705638754.000000) vcan0 200#1A00ECFFC52FB01D
(1705638754.005000) vcan0 200#1A00ECFFFB2EB01D
(1705638754.010000) vcan0 200#1A00ECFF812FB01D
(1705638754.015000) vcan0 200#1A00ECFFF32EB01D
(1705638754.020000) vcan0 200#1A00ECFFB12FB01D
(1705638754.025000) vcan0 200#1A00ECFFD72FB01D
(1705638754.029757) vcan0 005#972765
(1705638754.030000) vcan0 200#1A00ECFF352FB01D
(1705638754.034455) vcan0 6F3#7D5595B61D71
(1705638754.035000) vcan0 200#1A00ECFF452FB01D
(1705638754.040000) vcan0 200#1A00ECFF082FB01D
(1705638754.045000) vcan0 200#1A00ECFF592FB01D
(1705638754.049558) vcan0 0DB#210578DDF9
(1705638754.050000) vcan0 200#1A00ECFF4A2FB01D
(1705638754.055000) vcan0 200#1A00ECFF852FB01D
(1705638754.058213) vcan0 4C1#0AF9
(1705638754.060000) vcan0 200#1A00ECFF242FB01D
(1705638754.064702) vcan0 67C#C3B285
(1705638754.065000) vcan0 200#1A00ECFF9E2FB01D
(1705638754.070000) vcan0 200#1A00ECFF3C2FB01D
(1705638754.070468) vcan0 02B#127A5E67EA
(1705638754.075000) vcan0 200#1A00ECFFC32FB01D
(1705638754.077160) vcan0 510#C12F
(1705638754.080000) vcan0 200#1A00ECFFCE2FB01D
(1705638754.085000) vcan0 200#1A00ECFFDA2FB01D
(1705638754.090000) vcan0 200#1A00ECFF7A2FB01D
(1705638754.095000) vcan0 200#1A00ECFFAC2FB01D
(1705638754.098335) vcan0 7EC#4947C8BA29CA
(1705638754.100000) vcan0 200#1A00ECFF412FB01D
(1705638754.105000) vcan0 200#1A00ECFF412FB01D
(1705638754.110000) vcan0 200#1A00ECFF332FB01D
(1705638754.115000) vcan0 200#1A00ECFF2E2FB01D
(1705638754.120000) vcan0 200#1A00ECFF0C2FB01D
(1705638754.124454) vcan0 7A6#FFC1A71D876DE2
(1705638754.125000) vcan0 200#1A00ECFF602FB01D
(1705638754.130000) vcan0 200#1A00ECFF0B2FB01D
(1705638754.132961) vcan0 515#44A77722
(1705638754.135000) vcan0 200#1A00ECFF552FB01D
(1705638754.137390) vcan0 110#2E35B48769839C
(1705638754.140000) vcan0 200#1A00ECFF6B2FB01D
(1705638754.143777) vcan0 22D#1B1DFB9D
(1705638754.145000) vcan0 200#1A00ECFF442FB01D
(1705638754.147666) vcan0 72C#67CD6F28BE2339
(1705638754.150000) vcan0 200#1A00ECFFA82FB01D
(1705638754.150218) vcan0 603#EB58E982
(1705638754.155000) vcan0 200#1A00ECFFB92FB01D
(1705638754.158837) vcan0 75A#0ADB971D
(1705638754.160000) vcan0 200#1A00ECFFBE2FB01D
(1705638754.163668) vcan0 47B#806CCA5E877E524D
(1705638754.165000) vcan0 200#1A00ECFF012FB01D
(1705638754.170000) vcan0 200#1A00ECFFE32EB01D
(1705638754.175000) vcan0 200#1A00ECFF9A2FB01D
(1705638754.177188) vcan0 3FA#25E8C3ED
(1705638754.180000) vcan0 200#1A00ECFF502FB01D
(1705638754.184053) vcan0 3AC#5C3E5182F754
(1705638754.185000) vcan0 200#1A00ECFFBF2FB01D
(1705638754.190000) vcan0 200#1A00ECFF992FB01D
(1705638754.194307) vcan0 050#C5
(1705638754.195000) vcan0 200#1A00ECFFD52FB01D
(1705638754.200000) vcan0 200#1A00ECFF712FB01D
(1705638754.205000) vcan0 200#1A00ECFFC92FB01D
(1705638754.207235) vcan0 76C#B649C5
(1705638754.210000) vcan0 200#1A00ECFF272FB01D
(1705638754.211846) vcan0 3B1#3A9D
(1705638754.215000) vcan0 200#1A00ECFFA92FB01D
(1705638754.217946) vcan0 39F#DB558D525D
(1705638754.220000) vcan0 200#1A00ECFF0C2FB01D
(1705638754.225000) vcan0 200#1A00ECFF212FB01D
(1705638754.229482) vcan0 0D0#A0AAC66C6E
(1705638754.230000) vcan0 200#1A00ECFF292FB01D
(1705638754.235000) vcan0 200#1A00ECFFA02FB01D
(1705638754.238661) vcan0 5C8#2F300B54979A4D37
(1705638754.240000) vcan0 200#1A00ECFF1D2FB01D
(1705638754.240764) vcan0 4F3#74A70C5B67BC
(1705638754.245000) vcan0 200#1A00ECFFFF2EB01D
(1705638754.249910) vcan0 06A#9AD13EC6BB
(1705638754.250000) vcan0 200#1A00ECFFE52EB01D
(1705638754.253298) vcan0 64F#C305526ED0D408
(1705638754.255000) vcan0 200#1A00ECFF792FB01D
(1705638754.259789) vcan0 4CD#B236635A3B787B1E
(1705638754.260000) vcan0 200#1A00ECFF672FB01D
(1705638754.263782) vcan0 7D0#DB7CEE
(1705638754.265000) vcan0 200#1A00ECFF2F2FB01D
(1705638754.267670) vcan0 7CA#A140EF421BBCCE
(1705638754.270000) vcan0 200#1A00ECFFD92FB01D
(1705638754.270421) vcan0 0B5#3261
(1705638754.275000) vcan0 200#1A00ECFF862FB01D
(1705638754.277253) vcan0 45F#2A6B7A0F
(1705638754.280000) vcan0 200#1A00ECFFE42EB01D
(1705638754.284505) vcan0 768#23B8ADBE55674ED3
(1705638754.285000) vcan0 200#1A00ECFFE62EB01D
(1705638754.286302) vcan0 374#F5CD0E6DE0
(1705638754.290000) vcan0 200#1A00ECFFC62FB01D
(1705638754.295000) vcan0 200#1A00ECFF8F2FB01D
(1705638754.296785) vcan0 007#BE
(1705638754.300000) vcan0 200#1A00ECFF452FB01D
(1705638754.305000) vcan0 200#1A00ECFFC92FB01D
(1705638754.307905) vcan0 44F#37DE623FDC
(1705638754.310000) vcan0 200#1A00ECFF702FB01D
(1705638754.314583) vcan0 2DD#F7EEC95F04A34A
(1705638754.315000) vcan0 200#1A00ECFF352FB01D
(1705638754.315568) vcan0 0F1#A50B
(1705638754.320000) vcan0 200#1A00ECFFF12EB01D
(1705638754.325000) vcan0 200#1A00ECFF692FB01D
(1705638754.327489) vcan0 2B8#A8
(1705638754.330000) vcan0 200#1A00ECFFD82FB01D
(1705638754.335000) vcan0 200#1A00ECFF3F2FB01D
(1705638754.340000) vcan0 200#1A00ECFF962FB01D
(1705638754.344516) vcan0 78D#51CEAAC0
(1705638754.345000) vcan0 200#1A00ECFF212FB01D
(1705638754.349290) vcan0 183#9652C37E
(1705638754.350000) vcan0 200#1A00ECFFB22FB01D
(1705638754.350880) vcan0 572#4F9BEFD9
(1705638754.355000) vcan0 200#1A00ECFF2D2FB01D
(1705638754.360000) vcan0 200#1A00ECFF212FB01D
(1705638754.364367) vcan0 209#71A0BDD4B87A0576
(1705638754.365000) vcan0 200#1A00ECFFC02FB01D
(1705638754.368511) vcan0 311#B8717A
(1705638754.370000) vcan0 200#1A00ECFFA12FB01D
(1705638754.374820) vcan0 761#ABCA9B9E88310A
(1705638754.375000) vcan0 200#1A00ECFF9D2FB01D
(1705638754.380000) vcan0 200#1A00ECFF032FB01D
(1705638754.385000) vcan0 200#1A00ECFFF82EB01D
(1705638754.388742) vcan0 366#288EA0909116
(1705638754.390000) vcan0 200#1A00ECFF2B2FB01D
(1705638754.395000) vcan0 200#1A00ECFF812FB01D
(1705638754.400000) vcan0 200#1A00ECFF4F2FB01D
(1705638754.402287) vcan0 091#623CC63F5D
(1705638754.405000) vcan0 200#1A00ECFF142FB01D
(1705638754.406698) vcan0 705#36EE
(1705638754.410000) vcan0 200#1A00ECFF222FB01D
(1705638754.412510) vcan0 0D2#6D8974861D
(1705638754.415000) vcan0 200#1A00ECFF512FB01D
(1705638754.420000) vcan0 200#1A00ECFF9D2FB01D
(1705638754.421551) vcan0 1D0#127966
(1705638754.425000) vcan0 200#1A00ECFF5C2FB01D
(1705638754.430000) vcan0 200#1A00ECFF132FB01D
(1705638754.434762) vcan0 06D#6E
(1705638754.435000) vcan0 200#1A00ECFF802FB01D
(1705638754.440000) vcan0 200#1A00ECFF8B2FB01D
(1705638754.441763) vcan0 1B4#9C17AD84
(1705638754.445000) vcan0 200#1A00ECFF6F2FB01D
(1705638754.446299) vcan0 4E9#49BD7AAD8A
(1705638754.450000) vcan0 200#1A00ECFFA12FB01D
(1705638754.453741) vcan0 672#41554CD384
(1705638754.455000) vcan0 200#1A00ECFF1C2FB01D
(1705638754.460000) vcan0 200#1A00ECFF482FB01D
(1705638754.462934) vcan0 3D0#128366BACF
(1705638754.465000) vcan0 200#1A00ECFF122FB01D
(1705638754.470000) vcan0 200#1A00ECFFA82FB01D
(1705638754.475000) vcan0 200#1A00ECFF152FB01D
(1705638754.480000) vcan0 200#1A00ECFF102FB01D
(1705638754.484883) vcan0 03F#D227CA35080B55
(1705638754.485000) vcan0 200#1A00ECFF7A2FB01D
(1705638754.490000) vcan0 200#1A00ECFF352FB01D
(1705638754.495000) vcan0 200#1A00ECFFB82FB01D
(1705638754.499943) vcan0 769#EB
(1705638754.500000) vcan0 200#1A00ECFFEC2EB01D
(1705638754.505000) vcan0 200#1A00ECFF582FB01D
(1705638754.510000) vcan0 200#1A00ECFF272FB01D
(1705638754.512035) vcan0 586#B7E709
(1705638754.515000) vcan0 200#1A00ECFF6A2FB01D
(1705638754.516513) vcan0 7E8#01FD
(1705638754.520000) vcan0 200#1A00ECFFA12FB01D
(1705638754.524134) vcan0 45B#60370C7F61
(1705638754.525000) vcan0 200#1A00ECFF2C2FB01D
(1705638754.525190) vcan0 6F3#775ECE2368
(1705638754.530000) vcan0 200#1A00ECFF6F2FB01D
(1705638754.535000) vcan0 200#1A00ECFF132FB01D
(1705638754.538501) vcan0 521#4B026034B2880A
(1705638754.540000) vcan0 200#1A00ECFF502FB01D
(1705638754.541294) vcan0 4D9#2F
(1705638754.545000) vcan0 200#1A00ECFF6F2FB01D
(1705638754.546723) vcan0 513#D2EA
(1705638754.550000) vcan0 200#1A00ECFFB92FB01D
(1705638754.553555) vcan0 712#F0E9
(1705638754.555000) vcan0 200#1A00ECFF502FB01D
(1705638754.556402) vcan0 4CD#7E
(1705638754.560000) vcan0 200#1A00ECFFE12EB01D
(1705638754.560351) vcan0 28F#924BB61C
(1705638754.565000) vcan0 200#1A00ECFF702FB01D
(1705638754.570000) vcan0 200#1A00ECFF5B2FB01D
(1705638754.574612) vcan0 484#DB400FD306F1
(1705638754.575000) vcan0 200#1A00ECFF0A2FB01D
(1705638754.578611) vcan0 554#94ADFF29
(1705638754.580000) vcan0 200#1A00ECFFCB2FB01D
(1705638754.583143) vcan0 3DC#045A8692CC5873DB
(1705638754.585000) vcan0 200#1A00ECFF5D2FB01D
(1705638754.590000) vcan0 200#1A00ECFF982FB01D
(1705638754.592641) vcan0 6DE#66EF7F570FD19B
(1705638754.595000) vcan0 200#1A00ECFF6B2FB01D
(1705638754.600000) vcan0 200#1A00ECFF182FB01D
(1705638754.603837) vcan0 0FE#7A013C4BF8
(1705638754.605000) vcan0 200#1A00ECFFA42FB01D
(1705638754.610000) vcan0 200#1A00ECFFD82FB01D
(1705638754.613559) vcan0 005#8B31956C7E5656
(1705638754.615000) vcan0 200#1A00ECFF7B2FB01D
(1705638754.615300) vcan0 347#C6E5
(1705638754.620000) vcan0 200#1A00ECFFAF2FB01D
(1705638754.620460) vcan0 3C7#EE4BFBF1
(1705638754.625000) vcan0 200#1A00ECFFC42FB01D
(1705638754.628005) vcan0 35F#7E
(1705638754.630000) vcan0 200#1A00ECFFF42EB01D
(1705638754.635000) vcan0 200#1A00ECFF6C2FB01D
(1705638754.639943) vcan0 343#4C20B141
(1705638754.640000) vcan0 200#1A00ECFFC02FB01D
(1705638754.641535) vcan0 783#B2B7
(1705638754.645000) vcan0 200#1A00ECFF842FB01D
(1705638754.650000) vcan0 200#1A00ECFF132FB01D
(1705638754.655000) vcan0 200#1A00ECFFFD2EB01D
(1705638754.656965) vcan0 22D#EC50ECA921FA16
(1705638754.660000) vcan0 200#1A00ECFF442FB01D
(1705638754.664798) vcan0 1C3#81
(1705638754.665000) vcan0 200#1A00ECFFB92FB01D
(1705638754.670000) vcan0 200#1A00ECFF7A2FB01D
(1705638754.672598) vcan0 6F3#DDC75E31
(1705638754.675000) vcan0 200#1A00ECFF6B2FB01D
(1705638754.675364) vcan0 14D#E11A74
(1705638754.680000) vcan0 200#1A00ECFF942FB01D
(1705638754.680115) vcan0 5AD#2306F4B1BA2911
(1705638754.685000) vcan0 200#1A00ECFF4E2FB01D
(1705638754.686947) vcan0 0D0#C196
(1705638754.690000) vcan0 200#1A00ECFF432FB01D
(1705638754.695000) vcan0 200#1A00ECFFA52FB01D
(1705638754.700000) vcan0 200#1A00ECFF632FB01D
(1705638754.704860) vcan0 642#8CD2CB154BAA
(1705638754.705000) vcan0 200#1A00ECFFE82EB01D
(1705638754.710000) vcan0 200#1A00ECFF6E2FB01D
(1705638754.715000) vcan0 200#1A00ECFFBF2FB01D
(1705638754.720000) vcan0 200#1A00ECFFDD2FB01D
(1705638754.725000) vcan0 200#1A00ECFFA72FB01D
(1705638754.725070) vcan0 0F7#AE943C16136E
(1705638754.730000) vcan0 200#1A00ECFF882FB01D
(1705638754.735000) vcan0 200#1A00ECFF412FB01D
(1705638754.738031) vcan0 7B0#47A54A
(1705638754.740000) vcan0 200#1A00ECFFFC2EB01D
(1705638754.743889) vcan0 198#FDFE
(1705638754.745000) vcan0 200#1A00ECFF702FB01D
(1705638754.745431) vcan0 452#70ABC5
(1705638754.750000) vcan0 200#1A00ECFF972FB01D
(1705638754.750711) vcan0 702#8C
(1705638754.755000) vcan0 200#1A00ECFFA52FB01D
(1705638754.760000) vcan0 200#1A00ECFF5F2FB01D
(1705638754.765000) vcan0 200#1A00ECFF342FB01D
(1705638754.770000) vcan0 200#1A00ECFF852FB01D
(1705638754.773044) vcan0 306#CD
(1705638754.775000) vcan0 200#1A00ECFFC22FB01D
(1705638754.778963) vcan0 663#6DB588A03251
(1705638754.780000) vcan0 200#1A00ECFF552FB01D
(1705638754.781224) vcan0 652#15E95E8D35
(1705638754.785000) vcan0 200#1A00ECFFE62EB01D
(1705638754.790000) vcan0 200#1A00ECFF742FB01D
(1705638754.795000) vcan0 200#1A00ECFF3E2FB01D
(1705638754.795638) vcan0 57E#CEDE
(1705638754.800000) vcan0 200#1A00ECFFF82EB01D
(1705638754.802601) vcan0 687#D81E6B1E98097E
(1705638754.805000) vcan0 200#1A00ECFF4C2FB01D
(1705638754.809953) vcan0 7B5#E80F96A39D
(1705638754.810000) vcan0 200#1A00ECFF0A2FB01D
(1705638754.813280) vcan0 291#BD1474178EF3
(1705638754.815000) vcan0 200#1A00ECFFF82EB01D
(1705638754.820000) vcan0 200#1A00ECFF562FB01D
(1705638754.824194) vcan0 29C#0E183F
(1705638754.825000) vcan0 200#1A00ECFFF52EB01D
(1705638754.829721) vcan0 5B7#FC1E1087
(1705638754.830000) vcan0 200#1A00ECFF1D2FB01D
(1705638754.830609) vcan0 194#A383
(1705638754.835000) vcan0 200#1A00ECFF0E2FB01D
(1705638754.836803) vcan0 23D#6F181034
(1705638754.840000) vcan0 200#1A00ECFF242FB01D
(1705638754.840584) vcan0 379#CB
(1705638754.845000) vcan0 200#1A00ECFF4B2FB01D
(1705638754.850000) vcan0 200#1A00ECFF652FB01D
(1705638754.855000) vcan0 200#1A00ECFF5D2FB01D
(1705638754.855653) vcan0 17D#19A69670
(1705638754.860000) vcan0 200#1A00ECFF552FB01D
(1705638754.862072) vcan0 26F#F9E01F43140E
(1705638754.865000) vcan0 200#1A00ECFFF02EB01D
(1705638754.870000) vcan0 200#1A00ECFF802FB01D
(1705638754.874622) vcan0 470#8B025BD0262D57
(1705638754.875000) vcan0 200#1A00ECFFE12EB01D
(1705638754.880000) vcan0 200#1A00ECFFAD2FB01D
(1705638754.884321) vcan0 341#8530BEE76847EE
(1705638754.885000) vcan0 200#1A00ECFFB42FB01D
(1705638754.885956) vcan0 3F0#2683A29F8C
(1705638754.890000) vcan0 200#1A00ECFF862FB01D
(1705638754.895000) vcan0 200#1A00ECFF052FB01D
(1705638754.897398) vcan0 2A6#AA7C135794732098
(1705638754.900000) vcan0 200#1A00ECFF432FB01D
(1705638754.902211) vcan0 105#5A
(1705638754.905000) vcan0 200#1A00ECFFFC2EB01D
(1705638754.909576) vcan0 561#F82549EB62A9
(1705638754.910000) vcan0 200#1A00ECFFDF2FB01D
(1705638754.911984) vcan0 363#40E2D805
(1705638754.915000) vcan0 200#1A00ECFFC02FB01D
(1705638754.919302) vcan0 511#D5E314
(1705638754.920000) vcan0 200#1A00ECFF222FB01D
(1705638754.922134) vcan0 1C5#17
(1705638754.925000) vcan0 200#1A00ECFF372FB01D
(1705638754.927829) vcan0 1D9#5DB0EB2695
(1705638754.930000) vcan0 200#1A00ECFFD62FB01D
(1705638754.935000) vcan0 200#1A00ECFF932FB01D
(1705638754.940000) vcan0 200#1A00ECFF562FB01D
(1705638754.944725) vcan0 79C#2A98C828602C
(1705638754.945000) vcan0 200#1A00ECFFFD2EB01D
(1705638754.950000) vcan0 200#1A00ECFF682FB01D
(1705638754.950032) vcan0 775#555FE3100A03A5
(1705638754.955000) vcan0 200#1A00ECFF742FB01D
(1705638754.960000) vcan0 200#1A00ECFF0D2FB01D
(1705638754.964823) vcan0 02E#60A3D2C20654
(1705638754.965000) vcan0 200#1A00ECFFC32FB01D
(1705638754.968086) vcan0 6A0#40B284E7482F5F67
(1705638754.970000) vcan0 200#1A00ECFF502FB01D
(1705638754.975000) vcan0 200#1A00ECFFE32EB01D
(1705638754.978918) vcan0 347#5D5E64
(1705638754.980000) vcan0 200#1A00ECFF672FB01D
(1705638754.982470) vcan0 527#DB
(1705638754.985000) vcan0 200#1A00ECFFE92EB01D
(1705638754.986852) vcan0 6BE#455A1503A9
(1705638754.990000) vcan0 200#1A00ECFFB22FB01D
(1705638754.995000) vcan0 200#1A00ECFFA42FB01D
(1705638754.996986) vcan0 70D#DE52
(1705638755.000000) vcan0 200#1A00ECFF5F2FB01D
(1705638755.005000) vcan0 200#1A0014001D2FB01D
(1705638755.008767) vcan0 7D1#6D5C
(1705638755.010000) vcan0 200#1A001400782FB01D
(1705638755.015000) vcan0 200#1A001400332FB01D
(1705638755.020000) vcan0 200#1A001400092FB01D
(1705638755.024833) vcan0 2BA#7A8C52A0
(1705638755.025000) vcan0 200#1A001400022FB01D
(1705638755.030000) vcan0 200#1A001400622FB01D
(1705638755.033811) vcan0 6A5#AD94E489BB
(1705638755.035000) vcan0 200#1A0014009D2FB01D
(1705638755.040000) vcan0 200#1A0014006E2FB01D
(1705638755.045000) vcan0 200#1A001400F92EB01D
(1705638755.046497) vcan0 7CC#049D
(1705638755.050000) vcan0 200#1A001400852FB01D
(1705638755.055000) vcan0 200#1A001400222FB01D
(1705638755.058518) vcan0 052#5293602A6A
(1705638755.060000) vcan0 200#1A001400332FB01D
(1705638755.064719) vcan0 719#EF5E8C8F97DB01B0
(1705638755.065000) vcan0 200#1A0014006F2FB01D
(1705638755.066114) vcan0 269#86DC5B4254
(1705638755.070000) vcan0 200#1A001400412FB01D
(1705638755.072026) vcan0 789#EC
(1705638755.075000) vcan0 200#1A001400E02EB01D
(1705638755.077264) vcan0 2D2#1529E4FB19
(1705638755.080000) vcan0 200#1A001400102FB01D
(1705638755.085000) vcan0 200#1A001400152FB01D
(1705638755.088211) vcan0 502#F8D0
(1705638755.090000) vcan0 200#1A0014006C2FB01D
(1705638755.092139) vcan0 389#83
(1705638755.095000) vcan0 200#1A001400232FB01D
(1705638755.095854) vcan0 537#9B
(1705638755.100000) vcan0 200#1A0014007E2FB01D
(1705638755.105000) vcan0 200#1A0014002D2FB01D
(1705638755.106040) vcan0 3AF#8078AE1A
(1705638755.110000) vcan0 200#1A001400822FB01D
(1705638755.114174) vcan0 7E5#E9A882F779
(1705638755.115000) vcan0 200#1A001400A52FB01D
(1705638755.120000) vcan0 200#1A001400E82EB01D
(1705638755.125000) vcan0 200#1A001400272FB01D
(1705638755.125731) vcan0 18E#797D8E54
(1705638755.130000) vcan0 200#1A001400B22FB01D
(1705638755.135000) vcan0 200#1A001400B42FB01D
(1705638755.140000) vcan0 200#1A001400FB2EB01D
(1705638755.142915) vcan0 769#F4403FFB
(1705638755.145000) vcan0 200#1A001400392FB01D
(1705638755.150000) vcan0 200#1A001400C12FB01D
(1705638755.155000) vcan0 200#1A001400642FB01D
(1705638755.157632) vcan0 255#BCC54D831B0E
(1705638755.160000) vcan0 200#1A001400F92EB01D
(1705638755.161846) vcan0 598#F1
(1705638755.165000) vcan0 200#1A0014007E2FB01D
(1705638755.170000) vcan0 200#1A0014005C2FB01D
(1705638755.175000) vcan0 200#1A001400FC2EB01D
(1705638755.177154) vcan0 187#31
(1705638755.180000) vcan0 200#1A001400E42EB01D
(1705638755.185000) vcan0 200#1A001400472FB01D
(1705638755.190000) vcan0 200#1A001400CC2FB01D
(1705638755.193440) vcan0 061#F3BD23DA9A29F7A4
(1705638755.195000) vcan0 200#1A001400E72EB01D
(1705638755.199191) vcan0 691#156C
(1705638755.200000) vcan0 200#1A0014006C2FB01D
(1705638755.204137) vcan0 782#2954
(1705638755.205000) vcan0 200#1A001400532FB01D
(1705638755.210000) vcan0 200#1A0014004F2FB01D
(1705638755.212338) vcan0 5EF#42
(1705638755.215000) vcan0 200#1A001400E12EB01D
(1705638755.218538) vcan0 492#BCF5
(1705638755.220000) vcan0 200#1A001400C72FB01D
(1705638755.221657) vcan0 5D8#5D4343
(1705638755.225000) vcan0 200#1A001400742FB01D
(1705638755.230000) vcan0 200#1A001400B42FB01D
(1705638755.235000) vcan0 200#1A001400022FB01D
(1705638755.238854) vcan0 064#0D140E
(1705638755.240000) vcan0 200#1A001400B02FB01D
(1705638755.245000) vcan0 200#1A0014006B2FB01D
(1705638755.250000) vcan0 200#1A001400D12FB01D
(1705638755.254486) vcan0 60D#A4
(1705638755.255000) vcan0 200#1A001400EC2EB01D
(1705638755.256206) vcan0 35C#3A7D
(1705638755.260000) vcan0 200#1A001400FB2EB01D
(1705638755.265000) vcan0 200#1A001400302FB01D
(1705638755.268914) vcan0 3E9#9B849059FF
(1705638755.270000) vcan0 200#1A001400AC2FB01D
(1705638755.274911) vcan0 58D#48068F4C6184A794
(1705638755.275000) vcan0 200#1A001400272FB01D
(1705638755.277642) vcan0 75C#D34845DCE300FEF3
(1705638755.280000) vcan0 200#1A001400812FB01D
(1705638755.285000) vcan0 200#1A001400802FB01D
(1705638755.288660) vcan0 77A#1D2B8F
(1705638755.290000) vcan0 200#1A001400032FB01D
(1705638755.295000) vcan0 200#1A0014009A2FB01D
(1705638755.300000) vcan0 200#1A001400BC2FB01D
(1705638755.302470) vcan0 684#88BA3E251264
(1705638755.305000) vcan0 200#1A0014009B2FB01D
(1705638755.310000) vcan0 200#1A0014001B2FB01D
(1705638755.313379) vcan0 302#23EC5D92
(1705638755.315000) vcan0 200#1A001400932FB01D
(1705638755.316671) vcan0 6FB#4B
(1705638755.320000) vcan0 200#1A0014000E2FB01D
(1705638755.325000) vcan0 200#1A001400E22EB01D
(1705638755.326733) vcan0 3F2#30CAE8449476026B
(1705638755.330000) vcan0 200#1A001400232FB01D
(1705638755.335000) vcan0 200#1A001400D22FB01D
(1705638755.338803) vcan0 387#5684B221BA
(1705638755.340000) vcan0 200#1A001400062FB01D
(1705638755.345000) vcan0 200#1A0014002D2FB01D
(1705638755.350000) vcan0 200#1A0014008C2FB01D
(1705638755.350734) vcan0 0E3#60259E6ECC
(1705638755.355000) vcan0 200#1A001400FB2EB01D
(1705638755.357989) vcan0 178#CC73
(1705638755.360000) vcan0 200#1A001400DD2FB01D
(1705638755.361233) vcan0 3E4#1EE5C4CAAB
(1705638755.365000) vcan0 200#1A001400C82FB01D
(1705638755.368925) vcan0 5EE#3A8F
(1705638755.370000) vcan0 200#1A001400482FB01D
(1705638755.375000) vcan0 200#1A001400A52FB01D
(1705638755.376394) vcan0 5B5#CFEB
(1705638755.380000) vcan0 200#1A001400742FB01D
(1705638755.385000) vcan0 200#1A001400842FB01D
(1705638755.387925) vcan0 3AA#4E5DF7
(1705638755.390000) vcan0 200#1A001400BC2FB01D
(1705638755.395000) vcan0 200#1A001400042FB01D
(1705638755.400000) vcan0 200#1A001400652FB01D
(1705638755.405000) vcan0 200#1A0014004B2FB01D
(1705638755.410000) vcan0 200#1A001400102FB01D
(1705638755.411753) vcan0 3E1#B9
(1705638755.415000) vcan0 200#1A0014000D2FB01D
(1705638755.415439) vcan0 2C6#9321
(1705638755.420000) vcan0 200#1A001400F52EB01D
(1705638755.424875) vcan0 215#69DDD69E2032
(1705638755.425000) vcan0 200#1A001400B32FB01D
(1705638755.425974) vcan0 5FC#062E097B0DCA
(1705638755.430000) vcan0 200#1A001400912FB01D
(1705638755.433662) vcan0 2E0#5C418472
(1705638755.435000) vcan0 200#1A0014009F2FB01D
(1705638755.435793) vcan0 0C9#F8CBBEF24E2CB8
(1705638755.440000) vcan0 200#1A001400142FB01D
(1705638755.442938) vcan0 79F#19285C51DE1564
(1705638755.445000) vcan0 200#1A001400562FB01D
(1705638755.450000) vcan0 200#1A001400C12FB01D
(1705638755.454021) vcan0 38E#A5
(1705638755.455000) vcan0 200#1A0014007B2FB01D
(1705638755.458544) vcan0 36A#C8
(1705638755.460000) vcan0 200#1A001400342FB01D
(1705638755.463479) vcan0 399#55
(1705638755.465000) vcan0 200#1A0014008F2FB01D
(1705638755.468695) vcan0 6EF#3E529C9312FF
(1705638755.470000) vcan0 200#1A0014002E2FB01D
(1705638755.475000) vcan0 200#1A001400122FB01D
(1705638755.480000) vcan0 200#1A0014003B2FB01D
(1705638755.485000) vcan0 200#1A001400F72EB01D
(1705638755.490000) vcan0 200#1A001400062FB01D
(1705638755.491844) vcan0 5AB#761F9712C3477D5D
(1705638755.495000) vcan0 200#1A001400C82FB01D
(1705638755.500000) vcan0 200#1A001400022FB01D
(1705638755.502179) vcan0 10D#85D95CE704C46E
(1705638755.505000) vcan0 200#1A001400292FB01D
(1705638755.510000) vcan0 200#1A001400832FB01D
(1705638755.515000) vcan0 200#1A001400D82FB01D
(1705638755.520000) vcan0 200#1A001400B82FB01D
(1705638755.525000) vcan0 200#1A001400B32FB01D
(1705638755.526195) vcan0 05C#2C00F301
(1705638755.530000) vcan0 200#1A0014003D2FB01D
(1705638755.535000) vcan0 200#1A001400FB2EB01D
(1705638755.540000) vcan0 200#1A0014001C2FB01D
(1705638755.544200) vcan0 49A#EA7D78
(1705638755.545000) vcan0 200#1A001400D22FB01D
(1705638755.550000) vcan0 200#1A0014002B2FB01D
(1705638755.555000) vcan0 200#1A001400802FB01D
(1705638755.560000) vcan0 200#1A0014001C2FB01D
(1705638755.565000) vcan0 200#1A001400C72FB01D
(1705638755.568915) vcan0 30B#C0FD5320C18C5D
(1705638755.570000) vcan0 200#1A001400542FB01D
(1705638755.574979) vcan0 4BD#E9E6912DAF
(1705638755.575000) vcan0 200#1A001400482FB01D
(1705638755.578906) vcan0 4CF#108B95061A7B
(1705638755.580000) vcan0 200#1A001400392FB01D
(1705638755.584414) vcan0 7BA#77
(1705638755.585000) vcan0 200#1A001400DD2FB01D
(1705638755.588524) vcan0 399#583D63
(1705638755.590000) vcan0 200#1A001400092FB01D
(1705638755.595000) vcan0 200#1A001400C32FB01D
(1705638755.600000) vcan0 200#1A0014006D2FB01D
(1705638755.605000) vcan0 200#1A001400612FB01D
(1705638755.608803) vcan0 37A#AA
(1705638755.610000) vcan0 200#1A0014002D2FB01D
(1705638755.615000) vcan0 200#1A001400BB2FB01D
(1705638755.620000) vcan0 200#1A0014006A2FB01D
(1705638755.625000) vcan0 200#1A001400E42EB01D
(1705638755.629170) vcan0 5B2#29E356F3D860
(1705638755.630000) vcan0 200#1A0014003E2FB01D
(1705638755.631400) vcan0 5B3#7E9BF7231FC2
(1705638755.635000) vcan0 200#1A0014008E2FB01D
(1705638755.636328) vcan0 554#25CFEACA
(1705638755.640000) vcan0 200#1A0014005C2FB01D
(1705638755.645000) vcan0 200#1A001400D22FB01D
(1705638755.650000) vcan0 200#1A0014008E2FB01D
(1705638755.650664) vcan0 7E2#7F
(1705638755.655000) vcan0 200#1A001400C32FB01D
(1705638755.655004) vcan0 264#6C3222
(1705638755.660000) vcan0 200#1A001400962FB01D
(1705638755.663517) vcan0 47A#46DB320C7D33FC21
(1705638755.665000) vcan0 200#1A001400382FB01D
(1705638755.668759) vcan0 135#D94CEA8179
(1705638755.670000) vcan0 200#1A001400382FB01D
(1705638755.674101) vcan0 33E#ACE798CDC9
(1705638755.675000) vcan0 200#1A001400D82FB01D
(1705638755.675671) vcan0 20E#B1E6
(1705638755.680000) vcan0 200#1A001400EB2EB01D
(1705638755.685000) vcan0 200#1A001400912FB01D
(1705638755.685333) vcan0 4D7#406BAE2A1C10
(1705638755.690000) vcan0 200#1A001400932FB01D
(1705638755.693185) vcan0 5F5#15837B0CCD4D587C
(1705638755.695000) vcan0 200#1A0014007A2FB01D
(1705638755.695148) vcan0 602#F6A2D057F9
(1705638755.700000) vcan0 200#1A001400C32FB01D
(1705638755.704204) vcan0 431#A75F
(1705638755.705000) vcan0 200#1A001400162FB01D
(1705638755.708542) vcan0 42F#30C00FF3
(1705638755.710000) vcan0 200#1A0014004B2FB01D
(1705638755.710012) vcan0 6F9#4DD2
(1705638755.715000) vcan0 200#1A0014001E2FB01D
(1705638755.720000) vcan0 200#1A001400442FB01D
(1705638755.725000) vcan0 200#1A001400BA2FB01D
(1705638755.728074) vcan0 78E#E45428FFDD866C0A
(1705638755.730000) vcan0 200#1A001400FE2EB01D
(1705638755.735000) vcan0 200#1A001400212FB01D
(1705638755.740000) vcan0 200#1A0014006C2FB01D
(1705638755.745000) vcan0 200#1A001400B72FB01D
(1705638755.750000) vcan0 200#1A001400AB2FB01D
(1705638755.751565) vcan0 302#2D984EBA8D
(1705638755.755000) vcan0 200#1A001400FF2EB01D
(1705638755.760000) vcan0 200#1A001400C72FB01D
(1705638755.765000) vcan0 200#1A001400FE2EB01D
(1705638755.767288) vcan0 220#0B9A73CB129ECF
(1705638755.770000) vcan0 200#1A001400C92FB01D
(1705638755.775000) vcan0 200#1A001400CB2FB01D
(1705638755.775369) vcan0 044#1121DFFB
(1705638755.780000) vcan0 200#1A001400772FB01D
(1705638755.785000) vcan0 200#1A001400FF2EB01D
(1705638755.790000) vcan0 200#1A001400BC2FB01D
(1705638755.793435) vcan0 7B2#93F7DDD4D0
(1705638755.795000) vcan0 200#1A001400332FB01D
(1705638755.800000) vcan0 200#1A001400682FB01D
(1705638755.802965) vcan0 2A1#8D073869
(1705638755.805000) vcan0 200#1A001400592FB01D
(1705638755.810000) vcan0 200#1A001400222FB01D
(1705638755.812069) vcan0 31E#D1
(1705638755.815000) vcan0 200#1A001400C02FB01D
(1705638755.816639) vcan0 35F#0E29
(1705638755.820000) vcan0 200#1A001400492FB01D
(1705638755.825000) vcan0 200#1A001400842FB01D
(1705638755.828648) vcan0 634#97E7
(1705638755.830000) vcan0 200#1A001400232FB01D
(1705638755.833676) vcan0 340#EC2F
(1705638755.835000) vcan0 200#1A001400B52FB01D
(1705638755.840000) vcan0 200#1A001400BF2FB01D
(1705638755.842002) vcan0 355#58EC8E4972A076
(1705638755.845000) vcan0 200#1A0014008F2FB01D
(1705638755.847646) vcan0 687#13D307
(1705638755.850000) vcan0 200#1A001400792FB01D
(1705638755.852914) vcan0 3D8#25F6A68AA2F35C81
(1705638755.855000) vcan0 200#1A001400502FB01D
(1705638755.856453) vcan0 131#3EA3EAEA8E294853
(1705638755.860000) vcan0 200#1A001400632FB01D
(1705638755.865000) vcan0 200#1A001400592FB01D
(1705638755.870000) vcan0 200#1A001400F12EB01D
(1705638755.875000) vcan0 200#1A001400D12FB01D
(1705638755.880000) vcan0 200#1A001400BD2FB01D
(1705638755.885000) vcan0 200#1A0014003C2FB01D
(1705638755.886687) vcan0 14F#093438C7F136
(1705638755.890000) vcan0 200#1A0014003F2FB01D
(1705638755.895000) vcan0 200#1A001400A72FB01D
(1705638755.900000) vcan0 200#1A001400402FB01D
(1705638755.905000) vcan0 200#1A0014008B2FB01D
(1705638755.905573) vcan0 023#ADD90FB576
(1705638755.910000) vcan0 200#1A001400CB2FB01D
(1705638755.910401) vcan0 50C#54D8E73E8DD1B1
(1705638755.915000) vcan0 200#1A001400E12EB01D
(1705638755.920000) vcan0 200#1A0014003C2FB01D
(1705638755.925000) vcan0 200#1A001400062FB01D
(1705638755.928752) vcan0 02A#7A01C4
(1705638755.930000) vcan0 200#1A0014004A2FB01D
(1705638755.931990) vcan0 160#2397245875AE4B
(1705638755.935000) vcan0 200#1A001400492FB01D
(1705638755.936279) vcan0 078#6E9E
(1705638755.940000) vcan0 200#1A0014003E2FB01D
(1705638755.944012) vcan0 1A4#43D2AFFC
(1705638755.945000) vcan0 200#1A001400302FB01D
(1705638755.950000) vcan0 200#1A001400F02EB01D
(1705638755.955000) vcan0 200#1A001400AF2FB01D
(1705638755.956312) vcan0 79B#B5836CCAF27C
(1705638755.960000) vcan0 200#1A001400A02FB01D
(1705638755.965000) vcan0 200#1A001400A42FB01D
(1705638755.967705) vcan0 5D7#71440E19
(1705638755.970000) vcan0 200#1A001400F92EB01D
(1705638755.975000) vcan0 200#1A001400F12EB01D
(1705638755.980000) vcan0 200#1A001400102FB01D
(1705638755.985000) vcan0 200#1A001400E52EB01D
(1705638755.987784) vcan0 61C#75B1
(1705638755.990000) vcan0 200#1A001400852FB01D
(1705638755.992198) vcan0 0CA#495E0A
(1705638755.995000) vcan0 200#1A001400E92EB01D
(1705638755.997440) vcan0 2B2#04AF517A81AC
(1705638756.000000) vcan0 200#1A001400FA2EB01D
(1705638756.003642) vcan0 2C1#197791586E970B76
(1705638756.005000) vcan0 200#1A001400162FB01D
(1705638756.010000) vcan0 200#1A001400BE2FB01D
(1705638756.015000) vcan0 200#1A001400012FB01D
(1705638756.020000) vcan0 200#1A001400632FB01D
(1705638756.025000) vcan0 200#1A001400962FB01D
(1705638756.026000) vcan0 5FC#39B7
(1705638756.030000) vcan0 200#1A0014003C2FB01D
(1705638756.035000) vcan0 200#1A001400632FB01D
(1705638756.037959) vcan0 3BC#120D236E19
(1705638756.040000) vcan0 200#1A001400E02EB01D
(1705638756.045000) vcan0 200#1A001400392FB01D
(1705638756.047140) vcan0 5B8#19
(1705638756.050000) vcan0 200#1A001400202FB01D
(1705638756.055000) vcan0 200#1A0014008B2FB01D
(1705638756.060000) vcan0 200#1A001400B62FB01D
(1705638756.065000) vcan0 200#1A001400642FB01D
(1705638756.070000) vcan0 200#1A001400D22FB01D
(1705638756.075000) vcan0 200#1A001400142FB01D
(1705638756.076911) vcan0 4BB#81C88C
(1705638756.080000) vcan0 200#1A0014003E2FB01D
(1705638756.080584) vcan0 021#F63BAE7604
(1705638756.085000) vcan0 200#1A001400E22EB01D
(1705638756.088790) vcan0 058#E7CBCCB6100A
(1705638756.090000) vcan0 200#1A001400562FB01D
(1705638756.094727) vcan0 050#EB8524
(1705638756.095000) vcan0 200#1A001400A52FB01D
(1705638756.100000) vcan0 200#1A001400932FB01D
(1705638756.105000) vcan0 200#1A001400642FB01D
(1705638756.105950) vcan0 646#AC01
(1705638756.110000) vcan0 200#1A001400CA2FB01D
(1705638756.114560) vcan0 4E6#80
(1705638756.115000) vcan0 200#1A001400762FB01D
(1705638756.120000) vcan0 200#1A0014003D2FB01D
(1705638756.123441) vcan0 511#C6B660BCAB
(1705638756.125000) vcan0 200#1A001400A62FB01D
(1705638756.130000) vcan0 200#1A001400142FB01D
(1705638756.131482) vcan0 02E#BE8C8E8E
(1705638756.135000) vcan0 200#1A001400A22FB01D
(1705638756.135642) vcan0 6FE#422310B3D3A6988D
(1705638756.140000) vcan0 200#1A0014002D2FB01D
(1705638756.141245) vcan0 1E7#E33C94BAA231AFD4
(1705638756.145000) vcan0 200#1A001400232FB01D
(1705638756.150000) vcan0 200#1A001400552FB01D
(1705638756.155000) vcan0 200#1A001400AF2FB01D
(1705638756.160000) vcan0 200#1A001400CB2FB01D
(1705638756.165000) vcan0 200#1A001400232FB01D
(1705638756.170000) vcan0 200#1A001400DF2FB01D
(1705638756.174433) vcan0 608#FABBDCBAB347259E
(1705638756.175000) vcan0 200#1A001400402FB01D
(1705638756.180000) vcan0 200#1A001400972FB01D
(1705638756.181953) vcan0 7BB#EA67C142
(1705638756.185000) vcan0 200#1A001400F12EB01D
(1705638756.190000) vcan0 200#1A001400022FB01D
(1705638756.193253) vcan0 39A#C4370E2F
(1705638756.195000) vcan0 200#1A001400942FB01D
(1705638756.200000) vcan0 200#1A001400722FB01D
(1705638756.205000) vcan0 200#1A001400D02FB01D
(1705638756.210000) vcan0 200#1A001400D22FB01D
(1705638756.213037) vcan0 418#7BC11C9568
(1705638756.215000) vcan0 200#1A001400BF2FB01D
(1705638756.220000) vcan0 200#1A001400792FB01D
(1705638756.221997) vcan0 078#7033BDCE9711F4
(1705638756.225000) vcan0 200#1A001400AA2FB01D
(1705638756.226109) vcan0 717#9E9C64
(1705638756.230000) vcan0 200#1A001400912FB01D
(1705638756.233037) vcan0 73B#62DA
(1705638756.235000) vcan0 200#1A001400E82EB01D
(1705638756.239663) vcan0 445#994069
(1705638756.240000) vcan0 200#1A0014005F2FB01D
(1705638756.241128) vcan0 7BA#F6ED
(1705638756.245000) vcan0 200#1A001400862FB01D
(1705638756.246846) vcan0 57D#A1AE67
(1705638756.250000) vcan0 200#1A001400EF2EB01D
(1705638756.255000) vcan0 200#1A001400D72FB01D
(1705638756.260000) vcan0 200#1A0014005E2FB01D
(1705638756.263741) vcan0 57A#DBC2139C0D
(1705638756.265000) vcan0 200#1A001400342FB01D
(1705638756.266645) vcan0 553#B1EE
(1705638756.270000) vcan0 200#1A0014003B2FB01D
(1705638756.275000) vcan0 200#1A001400772FB01D
(1705638756.280000) vcan0 200#1A001400362FB01D
(1705638756.284007) vcan0 547#A3
(1705638756.285000) vcan0 200#1A0014005A2FB01D
(1705638756.288718) vcan0 68C#2F
(1705638756.290000) vcan0 200#1A0014000D2FB01D
(1705638756.290476) vcan0 3A8#2EC2CD9B1CCAA682
(1705638756.295000) vcan0 200#1A001400CF2FB01D
(1705638756.295781) vcan0 4BD#EEF7CD67
(1705638756.300000) vcan0 200#1A001400242FB01D
(1705638756.305000) vcan0 200#1A001400B42FB01D
(1705638756.306202) vcan0 781#EB
(1705638756.310000) vcan0 200#1A001400822FB01D
(1705638756.310229) vcan0 076#EA8C
(1705638756.315000) vcan0 200#1A001400AA2FB01D
(1705638756.317337) vcan0 5DA#DD52DC
(1705638756.320000) vcan0 200#1A001400732FB01D
(1705638756.325000) vcan0 200#1A001400482FB01D
(1705638756.330000) vcan0 200#1A001400892FB01D
(1705638756.333924) vcan0 0AA#C59D53285087
(1705638756.335000) vcan0 200#1A001400B62FB01D
(1705638756.339648) vcan0 777#73BC4A364CF6
(1705638756.340000) vcan0 200#1A001400ED2EB01D
(1705638756.340705) vcan0 51B#785E38CA9195D9B1
(1705638756.345000) vcan0 200#1A001400482FB01D
(1705638756.348309) vcan0 17C#6E
(1705638756.350000) vcan0 200#1A001400522FB01D
(1705638756.353273) vcan0 303#675ED9
(1705638756.355000) vcan0 200#1A001400D12FB01D
(1705638756.360000) vcan0 200#1A001400EE2EB01D
(1705638756.365000) vcan0 200#1A001400012FB01D
(1705638756.368592) vcan0 5B3#E4266BCC
(1705638756.370000) vcan0 200#1A0014009C2FB01D
(1705638756.373611) vcan0 60B#DAE8F29577
(1705638756.375000) vcan0 200#1A001400DA2FB01D
(1705638756.379452) vcan0 3B4#02395DB82176FF55
(1705638756.380000) vcan0 200#1A001400842FB01D
(1705638756.385000) vcan0 200#1A001400FD2EB01D
(1705638756.386024) vcan0 6DA#3A9CE2DCCC8B6FAC
(1705638756.390000) vcan0 200#1A001400A92FB01D
(1705638756.393750) vcan0 79E#70D0B603
(1705638756.395000) vcan0 200#1A001400192FB01D
(1705638756.396482) vcan0 20A#53
(1705638756.400000) vcan0 200#1A001400BC2FB01D
(1705638756.400964) vcan0 3E5#B1
(1705638756.405000) vcan0 200#1A001400F52EB01D
(1705638756.409547) vcan0 528#D9CCBFB3
(1705638756.410000) vcan0 200#1A001400772FB01D
(1705638756.414390) vcan0 1B5#8213DEEA11C9
(1705638756.415000) vcan0 200#1A001400A82FB01D
(1705638756.415145) vcan0 087#4D8A
(1705638756.420000) vcan0 200#1A001400B62FB01D
(1705638756.422359) vcan0 6F0#17595D6C2B56
(1705638756.425000) vcan0 200#1A001400FC2EB01D
(1705638756.429935) vcan0 14D#F44A95C4F7D786
(1705638756.430000) vcan0 200#1A001400282FB01D
(1705638756.435000) vcan0 200#1A001400E52EB01D
(1705638756.440000) vcan0 200#1A001400822FB01D
(1705638756.442988) vcan0 05B#16
(1705638756.445000) vcan0 200#1A001400982FB01D
(1705638756.448829) vcan0 65F#4D003225
(1705638756.450000) vcan0 200#1A0014001D2FB01D
(1705638756.455000) vcan0 200#1A001400DA2FB01D
(1705638756.457409) vcan0 4C2#899FCB87B79177
(1705638756.460000) vcan0 200#1A001400232FB01D
(1705638756.460194) vcan0 57B#03E4
(1705638756.465000) vcan0 200#1A0014004A2FB01D
(1705638756.467812) vcan0 359#8DE8FA73AA49
(1705638756.470000) vcan0 200#1A001400312FB01D
(1705638756.474155) vcan0 71F#13CE
(1705638756.475000) vcan0 200#1A0014003F2FB01D
(1705638756.480000) vcan0 200#1A001400BD2FB01D
(1705638756.480060) vcan0 372#DB
(1705638756.485000) vcan0 200#1A0014007C2FB01D
(1705638756.490000) vcan0 200#1A0014004F2FB01D
(1705638756.490158) vcan0 341#CB1E76CA
(1705638756.495000) vcan0 200#1A001400232FB01D
(1705638756.499300) vcan0 223#ADDA0C5E7EF5
(1705638756.500000) vcan0 200#1A001400502FB01D
(1705638756.503326) vcan0 3E1#C8F50976
(1705638756.505000) vcan0 200#1A001400A72FB01D
(1705638756.510000) vcan0 200#1A0014007C2FB01D
(1705638756.515000) vcan0 200#1A001400932FB01D
(1705638756.518156) vcan0 719#88E28083F5
(1705638756.520000) vcan0 200#1A001400A22FB01D
(1705638756.523194) vcan0 45B#17C3F3E995936B
(1705638756.525000) vcan0 200#1A001400DB2FB01D
(1705638756.527721) vcan0 0A9#F9D1
(1705638756.530000) vcan0 200#1A0014003B2FB01D
(1705638756.530197) vcan0 0FA#0602E05B85
(1705638756.535000) vcan0 200#1A001400892FB01D
(1705638756.536756) vcan0 4BF#98E654
(1705638756.540000) vcan0 200#1A0014000B2FB01D
(1705638756.544634) vcan0 682#F9085F3558C519
(1705638756.545000) vcan0 200#1A001400732FB01D
(1705638756.550000) vcan0 200#1A001400A82FB01D
(1705638756.550016) vcan0 630#89BA53
(1705638756.555000) vcan0 200#1A0014007A2FB01D
(1705638756.560000) vcan0 200#1A001400832FB01D
(1705638756.561357) vcan0 082#5DB192E679C868
(1705638756.565000) vcan0 200#1A001400C02FB01D
(1705638756.568009) vcan0 60E#707B72BC638427A7
(1705638756.570000) vcan0 200#1A001400A82FB01D
(1705638756.575000) vcan0 200#1A001400D62FB01D
(1705638756.580000) vcan0 200#1A001400552FB01D
(1705638756.585000) vcan0 200#1A001400D02FB01D
(1705638756.590000) vcan0 200#1A001400112FB01D
(1705638756.590995) vcan0 05B#EB066E
(1705638756.595000) vcan0 200#1A001400082FB01D
(1705638756.595927) vcan0 159#AE
(1705638756.600000) vcan0 200#1A0014009C2FB01D
(1705638756.605000) vcan0 200#1A0014002B2FB01D
(1705638756.610000) vcan0 200#1A0014001C2FB01D
(1705638756.615000) vcan0 200#1A001400192FB01D
(1705638756.617851) vcan0 743#939ACA61F64CE43C
(1705638756.620000) vcan0 200#1A0014002A2FB01D
(1705638756.625000) vcan0 200#1A001400AE2FB01D
(1705638756.630000) vcan0 200#1A001400992FB01D
(1705638756.635000) vcan0 200#1A0014008E2FB01D
(1705638756.638762) vcan0 2A0#5A77AA47
(1705638756.640000) vcan0 200#1A001400C12FB01D
(1705638756.644453) vcan0 53A#EDA996A5
(1705638756.645000) vcan0 200#1A001400792FB01D
(1705638756.646235) vcan0 75D#6E0DDA18C0
(1705638756.650000) vcan0 200#1A0014008D2FB01D
(1705638756.655000) vcan0 200#1A001400172FB01D
(1705638756.659425) vcan0 03E#A96B35027321503A
(1705638756.660000) vcan0 200#1A001400112FB01D
(1705638756.663947) vcan0 77A#140B352C55
(1705638756.665000) vcan0 200#1A0014009A2FB01D
(1705638756.667605) vcan0 0DA#CB0032D2
(1705638756.670000) vcan0 200#1A0014005A2FB01D
(1705638756.675000) vcan0 200#1A0014002A2FB01D
(1705638756.678286) vcan0 7FA#D6
(1705638756.680000) vcan0 200#1A001400C92FB01D
(1705638756.680981) vcan0 5ED#1B7C1F6AEEFC0751
(1705638756.685000) vcan0 200#1A001400E42EB01D
(1705638756.690000) vcan0 200#1A0014000E2FB01D
(1705638756.695000) vcan0 200#1A0014008A2FB01D
(1705638756.697917) vcan0 529#7A8E1A7B0F4F3EA0
(1705638756.700000) vcan0 200#1A0014002B2FB01D
(1705638756.705000) vcan0 200#1A001400042FB01D
(1705638756.709518) vcan0 56D#D532
(1705638756.710000) vcan0 200#1A001400812FB01D
(1705638756.715000) vcan0 200#1A001400BB2FB01D
(1705638756.718788) vcan0 707#F05E9C67C81A87
(1705638756.720000) vcan0 200#1A001400072FB01D
(1705638756.725000) vcan0 200#1A0014002D2FB01D
(1705638756.730000) vcan0 200#1A0014009E2FB01D
(1705638756.735000) vcan0 200#1A001400B72FB01D
(1705638756.740000) vcan0 200#1A001400992FB01D
(1705638756.740271) vcan0 3B7#237C2A094AFF6CAA
(1705638756.745000) vcan0 200#1A001400DA2FB01D
(1705638756.750000) vcan0 200#1A001400D02FB01D
(1705638756.752124) vcan0 166#72441FE2546A0E
(1705638756.755000) vcan0 200#1A001400182FB01D
(1705638756.758467) vcan0 1D4#F2
(1705638756.760000) vcan0 200#1A001400472FB01D
(1705638756.761688) vcan0 476#0B918F2C6D6CD2
(1705638756.765000) vcan0 200#1A001400F22EB01D
(1705638756.768358) vcan0 33C#F083BC88
(1705638756.770000) vcan0 200#1A001400282FB01D
(1705638756.771641) vcan0 180#5609E2
(1705638756.775000) vcan0 200#1A001400742FB01D
(1705638756.776682) vcan0 037#DA
(1705638756.780000) vcan0 200#1A001400FE2EB01D
(1705638756.781273) vcan0 312#1B625E20
(1705638756.785000) vcan0 200#1A001400572FB01D
(1705638756.789093) vcan0 492#3E35F840B6FE
(1705638756.790000) vcan0 200#1A0014002F2FB01D
(1705638756.791997) vcan0 47E#75069497
(1705638756.795000) vcan0 200#1A001400BC2FB01D
(1705638756.800000) vcan0 200#1A001400482FB01D
(1705638756.804874) vcan0 667#E1A9798F200119
(1705638756.805000) vcan0 200#1A0014006F2FB01D
(1705638756.805831) vcan0 5E8#5062
(1705638756.810000) vcan0 200#1A0014000D2FB01D
(1705638756.812974) vcan0 188#A687
(1705638756.815000) vcan0 200#1A001400C22FB01D
(1705638756.820000) vcan0 200#1A001400ED2EB01D
(1705638756.825000) vcan0 200#1A001400082FB01D
(1705638756.825170) vcan0 7F2#4FCEB1
(1705638756.830000) vcan0 200#1A001400102FB01D
(1705638756.835000) vcan0 200#1A001400DD2FB01D
(1705638756.835514) vcan0 2A7#E1F155
(1705638756.840000) vcan0 200#1A001400302FB01D
(1705638756.845000) vcan0 200#1A001400502FB01D
(1705638756.850000) vcan0 200#1A001400102FB01D
(1705638756.852872) vcan0 0BC#2C347CC0D3
(1705638756.855000) vcan0 200#1A001400732FB01D
(1705638756.860000) vcan0 200#1A001400282FB01D
(1705638756.865000) vcan0 200#1A001400292FB01D
(1705638756.870000) vcan0 200#1A0014000C2FB01D
(1705638756.873777) vcan0 7A1#8D81F8DD49
(1705638756.875000) vcan0 200#1A001400BF2FB01D
(1705638756.875813) vcan0 216#3C3717B8A8CD886C
(1705638756.880000) vcan0 200#1A001400E92EB01D
(1705638756.885000) vcan0 200#1A001400512FB01D
(1705638756.886900) vcan0 081#A18CF7
(1705638756.890000) vcan0 200#1A001400452FB01D
(1705638756.894101) vcan0 6CB#19
(1705638756.895000) vcan0 200#1A001400FA2EB01D
(1705638756.898284) vcan0 741#3278A77AF3
(1705638756.900000) vcan0 200#1A001400802FB01D
(1705638756.905000) vcan0 200#1A001400CA2FB01D
(1705638756.908652) vcan0 0CC#4C
(1705638756.910000) vcan0 200#1A001400722FB01D
(1705638756.912645) vcan0 441#6B
(1705638756.915000) vcan0 200#1A001400AD2FB01D
(1705638756.916785) vcan0 72E#850339
(1705638756.920000) vcan0 200#1A001400FC2EB01D
(1705638756.925000) vcan0 200#1A0014001F2FB01D
(1705638756.929410) vcan0 152#22
(1705638756.930000) vcan0 200#1A0014006C2FB01D
(1705638756.935000) vcan0 200#1A001400092FB01D
(1705638756.940000) vcan0 200#1A0014005F2FB01D
(1705638756.945000) vcan0 200#1A001400F52EB01D
(1705638756.950000) vcan0 200#1A001400142FB01D
(1705638756.954799) vcan0 1CD#FCE714CB5DCC
(1705638756.955000) vcan0 200#1A001400C12FB01D
(1705638756.960000) vcan0 200#1A001400242FB01D
(1705638756.965000) vcan0 200#1A001400962FB01D
(1705638756.970000) vcan0 200#1A001400922FB01D
(1705638756.975000) vcan0 200#1A0014003E2FB01D
(1705638756.980000) vcan0 200#1A001400F72EB01D
(1705638756.981990) vcan0 062#F53C75
(1705638756.985000) vcan0 200#1A001400822FB01D
(1705638756.990000) vcan0 200#1A001400522FB01D
(1705638756.991261) vcan0 4E6#E2B84627
(1705638756.995000) vcan0 200#1A001400242FB01D
(1705638757.000000) vcan0 200#1A001400442FB01D
(1705638757.004562) vcan0 65E#23
(1705638757.005000) vcan0 200#1A00ECFF472FB01D
(1705638757.005106) vcan0 4F1#1A61A3C9F33F6042
(1705638757.010000) vcan0 200#1A00ECFFD12FB01D
(1705638757.011700) vcan0 6F1#7F917ED58D
(1705638757.015000) vcan0 200#1A00ECFFB82FB01D
(1705638757.020000) vcan0 200#1A00ECFF842FB01D
(1705638757.024635) vcan0 7EB#A9A144C748
(1705638757.025000) vcan0 200#1A00ECFFE52EB01D
(1705638757.026614) vcan0 5D4#2B6C8D2E7E
(1705638757.030000) vcan0 200#1A00ECFF1B2FB01D
(1705638757.035000) vcan0 200#1A00ECFF1D2FB01D
(1705638757.040000) vcan0 200#1A00ECFF2D2FB01D
(1705638757.045000) vcan0 200#1A00ECFF422FB01D
(1705638757.048978) vcan0 560#BE591B47CF22
(1705638757.050000) vcan0 200#1A00ECFF302FB01D
(1705638757.055000) vcan0 200#1A00ECFF982FB01D
(1705638757.057611) vcan0 575#A8DB
(1705638757.060000) vcan0 200#1A00ECFF742FB01D
(1705638757.063787) vcan0 4D5#5E8B624BC1C023
(1705638757.065000) vcan0 200#1A00ECFFFD2EB01D
(1705638757.068709) vcan0 5AD#10
(1705638757.070000) vcan0 200#1A00ECFFBB2FB01D
(1705638757.073700) vcan0 38B#263E282764FB47
(1705638757.075000) vcan0 200#1A00ECFFE42EB01D
(1705638757.080000) vcan0 200#1A00ECFFE42EB01D
(1705638757.084321) vcan0 17D#9ED8B753
(1705638757.085000) vcan0 200#1A00ECFFF92EB01D
(1705638757.089318) vcan0 305#4622185E9A
(1705638757.090000) vcan0 200#1A00ECFFF32EB01D
(1705638757.095000) vcan0 200#1A00ECFF3C2FB01D
(1705638757.096380) vcan0 3FA#334215
(1705638757.100000) vcan0 200#1A00ECFF542FB01D
(1705638757.105000) vcan0 200#1A00ECFF2E2FB01D
(1705638757.108152) vcan0 0FD#EF91024C1AC69A
(1705638757.110000) vcan0 200#1A00ECFF882FB01D
(1705638757.114261) vcan0 2C1#73
(1705638757.115000) vcan0 200#1A00ECFF3F2FB01D
(1705638757.119916) vcan0 375#06
(1705638757.120000) vcan0 200#1A00ECFF342FB01D
(1705638757.125000) vcan0 200#1A00ECFF5F2FB01D
(1705638757.126766) vcan0 2DA#054610B3A78E57
(1705638757.130000) vcan0 200#1A00ECFF152FB01D
(1705638757.135000) vcan0 200#1A00ECFF122FB01D
(1705638757.136574) vcan0 7D0#114306658CF2
(1705638757.140000) vcan0 200#1A00ECFFA52FB01D
(1705638757.145000) vcan0 200#1A00ECFF082FB01D
(1705638757.149710) vcan0 566#DDEF5AA17946DF8A
(1705638757.150000) vcan0 200#1A00ECFF2E2FB01D
(1705638757.153729) vcan0 4A9#72F5DB
(1705638757.155000) vcan0 200#1A00ECFF4F2FB01D
(1705638757.160000) vcan0 200#1A00ECFF662FB01D
(1705638757.165000) vcan0 200#1A00ECFF4C2FB01D
(1705638757.170000) vcan0 200#1A00ECFF2D2FB01D
(1705638757.175000) vcan0 200#1A00ECFF6F2FB01D
(1705638757.176411) vcan0 6B1#61C7C143
(1705638757.180000) vcan0 200#1A00ECFF0D2FB01D
(1705638757.185000) vcan0 200#1A00ECFFA52FB01D
(1705638757.189320) vcan0 2AC#84CCE348432F
(1705638757.190000) vcan0 200#1A00ECFF1E2FB01D
(1705638757.195000) vcan0 200#1A00ECFF0D2FB01D
(1705638757.200000) vcan0 200#1A00ECFF9F2FB01D
(1705638757.205000) vcan0 200#1A00ECFF1A2FB01D
(1705638757.210000) vcan0 200#1A00ECFF482FB01D
(1705638757.212770) vcan0 62A#936ED7A0
(1705638757.215000) vcan0 200#1A00ECFF5B2FB01D
(1705638757.215435) vcan0 5FE#F31714B9696EFA7C
(1705638757.220000) vcan0 200#1A00ECFF5A2FB01D
(1705638757.222641) vcan0 669#B446F74D0500
(1705638757.225000) vcan0 200#1A00ECFF2B2FB01D
(1705638757.227971) vcan0 279#079636BDD4204179
(1705638757.230000) vcan0 200#1A00ECFF942FB01D
(1705638757.235000) vcan0 200#1A00ECFFCE2FB01D
(1705638757.236974) vcan0 1AE#A261C7F27964
(1705638757.240000) vcan0 200#1A00ECFF6A2FB01D
(1705638757.243596) vcan0 182#A19B059D
(1705638757.245000) vcan0 200#1A00ECFF122FB01D
(1705638757.247723) vcan0 38C#F1D14CB84843
(1705638757.250000) vcan0 200#1A00ECFFF52EB01D
(1705638757.251068) vcan0 102#F569443EB10FC502
(1705638757.255000) vcan0 200#1A00ECFF4E2FB01D
(1705638757.259899) vcan0 7EF#6C9F
(1705638757.260000) vcan0 200#1A00ECFF8C2FB01D
(1705638757.265000) vcan0 200#1A00ECFF3D2FB01D
(1705638757.269933) vcan0 78A#19A19DE97734EA
(1705638757.270000) vcan0 200#1A00ECFF172FB01D
(1705638757.275000) vcan0 200#1A00ECFF822FB01D
(1705638757.275636) vcan0 2C2#0E63
(1705638757.280000) vcan0 200#1A00ECFF1C2FB01D
(1705638757.281680) vcan0 168#68A5
(1705638757.285000) vcan0 200#1A00ECFFB12FB01D
(1705638757.287318) vcan0 370#C10C4ED2A442AA2E
(1705638757.290000) vcan0 200#1A00ECFFEB2EB01D
(1705638757.291332) vcan0 34D#5A630894ED49
(1705638757.295000) vcan0 200#1A00ECFF802FB01D
(1705638757.300000) vcan0 200#1A00ECFFE62EB01D
(1705638757.302849) vcan0 337#F8A6D2C88D9EF7
(1705638757.305000) vcan0 200#1A00ECFFC62FB01D
(1705638757.306464) vcan0 60B#D82C
(1705638757.310000) vcan0 200#1A00ECFF382FB01D
(1705638757.314308) vcan0 27C#ECEF
(1705638757.315000) vcan0 200#1A00ECFFCC2FB01D
(1705638757.320000) vcan0 200#1A00ECFFEF2EB01D
(1705638757.321464) vcan0 55B#9F31
(1705638757.325000) vcan0 200#1A00ECFF3E2FB01D
(1705638757.327783) vcan0 3D5#DD12B93D5321B7
(1705638757.330000) vcan0 200#1A00ECFF492FB01D
(1705638757.330170) vcan0 1C4#FA122B117AB4
(1705638757.335000) vcan0 200#1A00ECFFD42FB01D
(1705638757.337117) vcan0 043#77A5F7999F4B296A
(1705638757.340000) vcan0 200#1A00ECFF892FB01D
(1705638757.345000) vcan0 200#1A00ECFF662FB01D
(1705638757.350000) vcan0 200#1A00ECFF2A2FB01D
(1705638757.355000) vcan0 200#1A00ECFFDB2FB01D
(1705638757.356833) vcan0 705#901D2C7D4D1194C3
(1705638757.360000) vcan0 200#1A00ECFF802FB01D
(1705638757.362950) vcan0 615#9A1037F856
(1705638757.365000) vcan0 200#1A00ECFFC72FB01D
(1705638757.368859) vcan0 51C#456CAF2FC085
(1705638757.370000) vcan0 200#1A00ECFFC32FB01D
(1705638757.375000) vcan0 200#1A00ECFFC22FB01D
(1705638757.377656) vcan0 3CA#A2422F4DDDEDD086
(1705638757.380000) vcan0 200#1A00ECFFC22FB01D
(1705638757.381976) vcan0 2F7#27
(1705638757.385000) vcan0 200#1A00ECFFC32FB01D
(1705638757.389640) vcan0 370#51
(1705638757.390000) vcan0 200#1A00ECFFB92FB01D
(1705638757.394847) vcan0 108#B97886A4
(1705638757.395000) vcan0 200#1A00ECFF802FB01D
(1705638757.400000) vcan0 200#1A00ECFF9D2FB01D
(1705638757.405000) vcan0 200#1A00ECFFEB2EB01D
(1705638757.410000) vcan0 200#1A00ECFF132FB01D
(1705638757.415000) vcan0 200#1A00ECFF542FB01D
(1705638757.420000) vcan0 200#1A00ECFFBD2FB01D
(1705638757.425000) vcan0 200#1A00ECFFEC2EB01D
(1705638757.430000) vcan0 200#1A00ECFF9C2FB01D
(1705638757.435000) vcan0 200#1A00ECFFD82FB01D
(1705638757.440000) vcan0 200#1A00ECFF602FB01D
(1705638757.444072) vcan0 76E#184BF21B541A
(1705638757.445000) vcan0 200#1A00ECFFFB2EB01D
(1705638757.450000) vcan0 200#1A00ECFF152FB01D
(1705638757.451690) vcan0 6BF#36FBEBC2
(1705638757.455000) vcan0 200#1A00ECFF132FB01D
(1705638757.460000) vcan0 200#1A00ECFF722FB01D
(1705638757.465000) vcan0 200#1A00ECFF852FB01D
(1705638757.470000) vcan0 200#1A00ECFF7B2FB01D
(1705638757.475000) vcan0 200#1A00ECFF462FB01D
(1705638757.479895) vcan0 5FE#AB2D2F1A59ED
(1705638757.480000) vcan0 200#1A00ECFFAE2FB01D
(1705638757.485000) vcan0 200#1A00ECFF502FB01D
(1705638757.488396) vcan0 12B#6BC6E2DD75B811
(1705638757.490000) vcan0 200#1A00ECFF672FB01D
(1705638757.495000) vcan0 200#1A00ECFF6A2FB01D
(1705638757.497427) vcan0 78F#2E6618B5CA
(1705638757.500000) vcan0 200#1A00ECFF3F2FB01D
(1705638757.500682) vcan0 66C#29605FDA918A
(1705638757.505000) vcan0 200#1A00ECFF0F2FB01D
(1705638757.506276) vcan0 3AB#9DD81F
(1705638757.510000) vcan0 200#1A00ECFFAE2FB01D
(1705638757.510375) vcan0 592#4CE240EF9E
(1705638757.515000) vcan0 200#1A00ECFF782FB01D
(1705638757.520000) vcan0 200#1A00ECFF5F2FB01D
(1705638757.521304) vcan0 71E#64B00E
(1705638757.525000) vcan0 200#1A00ECFF222FB01D
(1705638757.527519) vcan0 149#E897
(1705638757.530000) vcan0 200#1A00ECFF862FB01D
(1705638757.535000) vcan0 200#1A00ECFFCB2FB01D
(1705638757.539242) vcan0 209#5F8EE5CDABFD
(1705638757.540000) vcan0 200#1A00ECFFA92FB01D
(1705638757.544849) vcan0 162#A0B676C16A6E
(1705638757.545000) vcan0 200#1A00ECFFAC2FB01D
(1705638757.548744) vcan0 665#B0231DF4FB99574B
(1705638757.550000) vcan0 200#1A00ECFF6A2FB01D
(1705638757.553984) vcan0 0E2#552229672885C2
(1705638757.555000) vcan0 200#1A00ECFF8A2FB01D
(1705638757.560000) vcan0 200#1A00ECFF392FB01D
(1705638757.563340) vcan0 7BA#60CCA72A
(1705638757.565000) vcan0 200#1A00ECFF3E2FB01D
(1705638757.568652) vcan0 0EB#9BAADFA326
(1705638757.570000) vcan0 200#1A00ECFF222FB01D
(1705638757.575000) vcan0 200#1A00ECFFA42FB01D
(1705638757.580000) vcan0 200#1A00ECFF2D2FB01D
(1705638757.585000) vcan0 200#1A00ECFFC22FB01D
(1705638757.590000) vcan0 200#1A00ECFF682FB01D
(1705638757.593710) vcan0 7CB#4FE47E
(1705638757.595000) vcan0 200#1A00ECFFF42EB01D
(1705638757.596540) vcan0 45F#0D1B789109AE82
(1705638757.600000) vcan0 200#1A00ECFF3C2FB01D
(1705638757.605000) vcan0 200#1A00ECFFFE2EB01D
(1705638757.610000) vcan0 200#1A00ECFF022FB01D
(1705638757.610046) vcan0 045#898C
(1705638757.615000) vcan0 200#1A00ECFF8A2FB01D
(1705638757.620000) vcan0 200#1A00ECFF252FB01D
(1705638757.620311) vcan0 53E#FB175628E2
(1705638757.625000) vcan0 200#1A00ECFFFF2EB01D
(1705638757.626509) vcan0 38E#3ED6AACD
(1705638757.630000) vcan0 200#1A00ECFFC92FB01D
(1705638757.633992) vcan0 147#45050513
(1705638757.635000) vcan0 200#1A00ECFFA12FB01D
(1705638757.635966) vcan0 554#9B2961B8351A
(1705638757.640000) vcan0 200#1A00ECFFCA2FB01D
(1705638757.644009) vcan0 335#3A1E2E1C4176E6
(1705638757.645000) vcan0 200#1A00ECFF412FB01D
(1705638757.650000) vcan0 200#1A00ECFFC12FB01D
(1705638757.652033) vcan0 180#FF
(1705638757.655000) vcan0 200#1A00ECFFA02FB01D
(1705638757.660000) vcan0 200#1A00ECFF5C2FB01D
(1705638757.662642) vcan0 7FC#20B6C60824
(1705638757.665000) vcan0 200#1A00ECFF392FB01D
(1705638757.669788) vcan0 3DA#201BB932852B6F
(1705638757.670000) vcan0 200#1A00ECFFC72FB01D
(1705638757.675000) vcan0 200#1A00ECFFBA2FB01D
(1705638757.680000) vcan0 200#1A00ECFF022FB01D
(1705638757.680043) vcan0 29E#F57A0E
(1705638757.685000) vcan0 200#1A00ECFFA72FB01D
(1705638757.685135) vcan0 230#60DBCAA02DB7BD
(1705638757.690000) vcan0 200#1A00ECFF032FB01D
(1705638757.695000) vcan0 200#1A00ECFFD52FB01D
(1705638757.700000) vcan0 200#1A00ECFFA42FB01D
(1705638757.705000) vcan0 200#1A00ECFF472FB01D
(1705638757.708616) vcan0 3B5#3EBD43BF47
(1705638757.710000) vcan0 200#1A00ECFFEB2EB01D
(1705638757.711972) vcan0 654#E83BD6AA4904BB
(1705638757.715000) vcan0 200#1A00ECFFD92FB01D
(1705638757.717948) vcan0 14D#60EE
(1705638757.720000) vcan0 200#1A00ECFF722FB01D
(1705638757.725000) vcan0 200#1A00ECFFF92EB01D
(1705638757.730000) vcan0 200#1A00ECFF6F2FB01D
(1705638757.735000) vcan0 200#1A00ECFF102FB01D
(1705638757.738307) vcan0 18A#30CA
(1705638757.740000) vcan0 200#1A00ECFFB02FB01D
(1705638757.744759) vcan0 117#0C328AC58149A95D
(1705638757.745000) vcan0 200#1A00ECFF752FB01D
(1705638757.746170) vcan0 1FE#98F8
(1705638757.750000) vcan0 200#1A00ECFF0E2FB01D
(1705638757.755000) vcan0 200#1A00ECFF302FB01D
(1705638757.755988) vcan0 735#9878D9D5
(1705638757.760000) vcan0 200#1A00ECFF432FB01D
(1705638757.765000) vcan0 200#1A00ECFFCB2FB01D
(1705638757.767492) vcan0 036#FC4D
(1705638757.770000) vcan0 200#1A00ECFF7F2FB01D
(1705638757.771069) vcan0 5F4#F5
(1705638757.775000) vcan0 200#1A00ECFF252FB01D
(1705638757.777193) vcan0 5A3#BD2822410879
(1705638757.780000) vcan0 200#1A00ECFFCD2FB01D
(1705638757.781984) vcan0 547#10
(1705638757.785000) vcan0 200#1A00ECFF112FB01D
(1705638757.788676) vcan0 027#1BE6ED36
(1705638757.790000) vcan0 200#1A00ECFF852FB01D
(1705638757.795000) vcan0 200#1A00ECFF402FB01D
(1705638757.800000) vcan0 200#1A00ECFF7E2FB01D
(1705638757.805000) vcan0 200#1A00ECFFC32FB01D
(1705638757.810000) vcan0 200#1A00ECFFEB2EB01D
(1705638757.815000) vcan0 200#1A00ECFF6E2FB01D
(1705638757.820000) vcan0 200#1A00ECFF452FB01D
(1705638757.824728) vcan0 3FA#462F4EC8E7E45B
(1705638757.825000) vcan0 200#1A00ECFF2F2FB01D
(1705638757.830000) vcan0 200#1A00ECFF752FB01D
(1705638757.830036) vcan0 5BC#C09B0C
(1705638757.835000) vcan0 200#1A00ECFFA12FB01D
(1705638757.838915) vcan0 2F0#F12BA8
(1705638757.840000) vcan0 200#1A00ECFF6F2FB01D
(1705638757.844913) vcan0 6B5#44EDE7
(1705638757.845000) vcan0 200#1A00ECFF1B2FB01D
(1705638757.849970) vcan0 081#21
(1705638757.850000) vcan0 200#1A00ECFF362FB01D
(1705638757.850317) vcan0 772#6103E9A0BD
(1705638757.855000) vcan0 200#1A00ECFFB32FB01D
(1705638757.860000) vcan0 200#1A00ECFF162FB01D
(1705638757.864681) vcan0 151#D4085C25
(1705638757.865000) vcan0 200#1A00ECFFAF2FB01D
(1705638757.868420) vcan0 266#E5783061
(1705638757.870000) vcan0 200#1A00ECFF232FB01D
(1705638757.875000) vcan0 200#1A00ECFF5E2FB01D
(1705638757.880000) vcan0 200#1A00ECFF962FB01D
(1705638757.884838) vcan0 57E#569196
(1705638757.885000) vcan0 200#1A00ECFF8E2FB01D
(1705638757.888459) vcan0 5A9#CD46711F
(1705638757.890000) vcan0 200#1A00ECFF4D2FB01D
(1705638757.894696) vcan0 2E7#5AAA66
(1705638757.895000) vcan0 200#1A00ECFF152FB01D
(1705638757.900000) vcan0 200#1A00ECFFAA2FB01D
(1705638757.905000) vcan0 200#1A00ECFF1F2FB01D
(1705638757.910000) vcan0 200#1A00ECFF862FB01D
(1705638757.914065) vcan0 790#E516
(1705638757.915000) vcan0 200#1A00ECFFCB2FB01D
(1705638757.918692) vcan0 255#29E51C
(1705638757.920000) vcan0 200#1A00ECFF4D2FB01D
(1705638757.925000) vcan0 200#1A00ECFF0E2FB01D
(1705638757.927728) vcan0 6E2#9764E90D0E13
(1705638757.930000) vcan0 200#1A00ECFFF92EB01D
(1705638757.932927) vcan0 2C8#3729
(1705638757.935000) vcan0 200#1A00ECFF262FB01D
(1705638757.940000) vcan0 200#1A00ECFF9D2FB01D
(1705638757.945000) vcan0 200#1A00ECFF322FB01D
(1705638757.949681) vcan0 40F#745E
(1705638757.950000) vcan0 200#1A00ECFF092FB01D
(1705638757.954286) vcan0 0B0#150D136FDE96E0
(1705638757.955000) vcan0 200#1A00ECFF022FB01D
(1705638757.957408) vcan0 093#9191689743ABB6CC
(1705638757.960000) vcan0 200#1A00ECFF032FB01D
(1705638757.960130) vcan0 4A9#E3
(1705638757.965000) vcan0 200#1A00ECFF252FB01D
(1705638757.970000) vcan0 200#1A00ECFF852FB01D
(1705638757.975000) vcan0 200#1A00ECFF612FB01D
(1705638757.975352) vcan0 5D3#F68E841FDC7A87
(1705638757.980000) vcan0 200#1A00ECFFF92EB01D
(1705638757.985000) vcan0 200#1A00ECFFF52EB01D
(1705638757.990000) vcan0 200#1A00ECFFF02EB01D
(1705638757.994351) vcan0 50D#6D6692BB8E38F9
(1705638757.995000) vcan0 200#1A00ECFF082FB01D
(1705638758.000000) vcan0 200#1A00ECFF5E2FB01D
(1705638758.005000) vcan0 200#1A00ECFF592FB01D
(1705638758.010000) vcan0 200#1A00ECFF932FB01D
(1705638758.011577) vcan0 731#C61CE3
(1705638758.015000) vcan0 200#1A00ECFF572FB01D
(1705638758.020000) vcan0 200#1A00ECFF3D2FB01D
(1705638758.020634) vcan0 65F#7C90B99F1CCEBA
(1705638758.025000) vcan0 200#1A00ECFF112FB01D
(1705638758.025737) vcan0 0E1#11989464C3
(1705638758.030000) vcan0 200#1A00ECFF942FB01D
(1705638758.033877) vcan0 071#49DA17
(1705638758.035000) vcan0 200#1A00ECFF552FB01D
(1705638758.037791) vcan0 535#57B573A118716BC3
(1705638758.040000) vcan0 200#1A00ECFF0C2FB01D
(1705638758.045000) vcan0 200#1A00ECFFBF2FB01D
(1705638758.048497) vcan0 52F#59CF9DBD7A
(1705638758.050000) vcan0 200#1A00ECFF7B2FB01D
(1705638758.052273) vcan0 10D#9225AB381C6B
(1705638758.055000) vcan0 200#1A00ECFF3D2FB01D
(1705638758.056566) vcan0 079#FF5694120377
(1705638758.060000) vcan0 200#1A00ECFFD72FB01D
(1705638758.062902) vcan0 100#64F996B0E753AC
(1705638758.065000) vcan0 200#1A00ECFF6C2FB01D
(1705638758.070000) vcan0 200#1A00ECFF872FB01D
(1705638758.072749) vcan0 505#DDCFBB
