(1705638751.000000) vcan0 200#00005000DC2FB01D
(1705638751.004024) vcan0 6AA#7840128E8E90A254
(1705638751.005000) vcan0 200#00005000AE2FB01D
(1705638751.010000) vcan0 200#00005000432FB01D
(1705638751.012664) vcan0 165#F5
(1705638751.015000) vcan0 200#00005000F92EB01D
(1705638751.020000) vcan0 200#00005000742FB01D
(1705638751.022022) vcan0 039#A1BB0CE0
(1705638751.025000) vcan0 200#00005000ED2EB01D
(1705638751.029673) vcan0 687#4A55808D
(1705638751.030000) vcan0 200#00005000C82FB01D
(1705638751.031150) vcan0 289#190851644A24CAF2
(1705638751.035000) vcan0 200#00005000082FB01D
(1705638751.036365) vcan0 2DC#E3988703EC
(1705638751.040000) vcan0 200#00005000E42EB01D
(1705638751.042931) vcan0 676#70F0
(1705638751.045000) vcan0 200#00005000C82FB01D
(1705638751.046469) vcan0 1EE#5FFA
(1705638751.050000) vcan0 200#000050009F2FB01D
(1705638751.053823) vcan0 0D0#7F8F64B7D17795DD
(1705638751.055000) vcan0 200#000050007E2FB01D
(1705638751.059984) vcan0 499#3A988DA2
(1705638751.060000) vcan0 200#00005000942FB01D
(1705638751.064831) vcan0 759#4064
(1705638751.065000) vcan0 200#00005000552FB01D
(1705638751.070000) vcan0 200#000050002D2FB01D
(1705638751.075000) vcan0 200#00005000E82EB01D
(1705638751.078612) vcan0 6F9#97BFC5
(1705638751.080000) vcan0 200#00005000E02EB01D
(1705638751.085000) vcan0 200#00005000D42FB01D
(1705638751.090000) vcan0 200#000050006A2FB01D
(1705638751.093006) vcan0 1DC#D1512CEC
(1705638751.095000) vcan0 200#00005000F62EB01D
(1705638751.098174) vcan0 382#3C
(1705638751.100000) vcan0 200#00005000122FB01D
(1705638751.100533) vcan0 016#98
(1705638751.105000) vcan0 200#000050002C2FB01D
(1705638751.109207) vcan0 595#2FD67734
(1705638751.110000) vcan0 200#00005000ED2EB01D
(1705638751.114975) vcan0 76A#E4AEF22BD6C0C4
(1705638751.115000) vcan0 200#00005000E82EB01D
(1705638751.115925) vcan0 2AF#49430AE6FB657E49
(1705638751.120000) vcan0 200#00005000772FB01D
(1705638751.125000) vcan0 200#00005000482FB01D
(1705638751.130000) vcan0 200#00005000E72EB01D
(1705638751.130289) vcan0 29B#303200C613
(1705638751.135000) vcan0 200#00005000032FB01D
(1705638751.140000) vcan0 200#00005000CD2FB01D
(1705638751.144193) vcan0 01B#489D0D21
(1705638751.145000) vcan0 200#00005000DE2FB01D
(1705638751.149693) vcan0 3B8#1938FE1AE369F1
(1705638751.150000) vcan0 200#00005000FF2EB01D
(1705638751.150502) vcan0 6CE#E5B39A1867
(1705638751.155000) vcan0 200#00005000512FB01D
(1705638751.160000) vcan0 200#000050004E2FB01D
(1705638751.165000) vcan0 200#00005000FD2EB01D
(1705638751.165228) vcan0 323#9B054580
(1705638751.170000) vcan0 200#00005000242FB01D
(1705638751.175000) vcan0 200#00005000802FB01D
(1705638751.180000) vcan0 200#00005000D72FB01D
(1705638751.181653) vcan0 3ED#72A0B177467F
(1705638751.185000) vcan0 200#000050006E2FB01D
(1705638751.188854) vcan0 2AD#87
(1705638751.190000) vcan0 200#00005000C02FB01D
(1705638751.195000) vcan0 200#000050006C2FB01D
(1705638751.200000) vcan0 200#00005000A82FB01D
(1705638751.205000) vcan0 200#00005000982FB01D
(1705638751.205395) vcan0 29D#7E011977D9
(1705638751.210000) vcan0 200#00005000DD2FB01D
(1705638751.215000) vcan0 200#00005000C22FB01D
(1705638751.220000) vcan0 200#000050000A2FB01D
(1705638751.224165) vcan0 417#A7A4F3A82FFD9F16
(1705638751.225000) vcan0 200#000050004F2FB01D
(1705638751.230000) vcan0 200#00005000122FB01D
(1705638751.231390) vcan0 1C8#E8
(1705638751.235000) vcan0 200#00005000A72FB01D
(1705638751.235091) vcan0 5D4#89EC
(1705638751.240000) vcan0 200#00005000082FB01D
(1705638751.244298) vcan0 43F#7AE62BD1B3ED39C3
(1705638751.245000) vcan0 200#00005000242FB01D
(1705638751.249456) vcan0 38E#88C2
(1705638751.250000) vcan0 200#00005000132FB01D
(1705638751.255000) vcan0 200#000050002E2FB01D
(1705638751.260000) vcan0 200#00005000E02EB01D
(1705638751.264561) vcan0 261#B37F
(1705638751.265000) vcan0 200#000050007E2FB01D
(1705638751.270000) vcan0 200#00005000232FB01D
(1705638751.271087) vcan0 2F6#D1
(1705638751.275000) vcan0 200#000050003B2FB01D
(1705638751.280000) vcan0 200#00005000C12FB01D
(1705638751.281896) vcan0 0E3#4D6E963E72FA5E
(1705638751.285000) vcan0 200#00005000582FB01D
(1705638751.287911) vcan0 2DC#CC
(1705638751.290000) vcan0 200#000050002F2FB01D
(1705638751.295000) vcan0 200#00005000362FB01D
(1705638751.300000) vcan0 200#00005000AC2FB01D
(1705638751.303522) vcan0 260#559969FA
(1705638751.305000) vcan0 200#00005000752FB01D
(1705638751.310000) vcan0 200#010050003B2FB01D
(1705638751.315000) vcan0 200#01005000152FB01D
(1705638751.319840) vcan0 145#C21134
(1705638751.320000) vcan0 200#020050007A2FB01D
(1705638751.324858) vcan0 654#49CBAD
(1705638751.325000) vcan0 200#02005000032FB01D
(1705638751.330000) vcan0 200#03005000BB2FB01D
(1705638751.333345) vcan0 2ED#E0
(1705638751.335000) vcan0 200#03005000E42EB01D
(1705638751.339700) vcan0 47B#4BD49E83DE
(1705638751.340000) vcan0 200#04005000F92EB01D
(1705638751.345000) vcan0 200#040050009D2FB01D
(1705638751.346538) vcan0 2EC#9AE2194D79
(1705638751.350000) vcan0 200#05005000CD2FB01D
(1705638751.353510) vcan0 77A#2D3A9973C9AD
(1705638751.355000) vcan0 200#05005000382FB01D
(1705638751.355492) vcan0 046#66
(1705638751.360000) vcan0 200#060050007C2FB01D
(1705638751.365000) vcan0 200#060050004F2FB01D
(1705638751.370000) vcan0 200#07005000922FB01D
(1705638751.371165) vcan0 662#E9
(1705638751.375000) vcan0 200#07005000532FB01D
(1705638751.380000) vcan0 200#08005000272FB01D
(1705638751.381538) vcan0 11F#1801
(1705638751.385000) vcan0 200#08005000C82FB01D
(1705638751.390000) vcan0 200#09005000B62FB01D
(1705638751.392105) vcan0 3EE#5640D3
(1705638751.395000) vcan0 200#09005000322FB01D
(1705638751.395391) vcan0 1EE#99D08D09228F1315
(1705638751.400000) vcan0 200#0A005000302FB01D
(1705638751.404372) vcan0 041#C7F4AC87
(1705638751.405000) vcan0 200#0A005000432FB01D
(1705638751.408380) vcan0 3FD#C85C8DEE2D362C0E
(1705638751.410000) vcan0 200#0B005000722FB01D
(1705638751.415000) vcan0 200#0B005000742FB01D
(1705638751.420000) vcan0 200#0C005000D92FB01D
(1705638751.425000) vcan0 200#0C005000A52FB01D
(1705638751.430000) vcan0 200#0D005000D32FB01D
(1705638751.433524) vcan0 41A#58D4E6D5AA6928
(1705638751.435000) vcan0 200#0D0050001C2FB01D
(1705638751.438328) vcan0 11A#3022
(1705638751.440000) vcan0 200#0E005000902FB01D
(1705638751.445000) vcan0 200#0F0050006F2FB01D
(1705638751.449781) vcan0 763#D07DEC9C75
(1705638751.450000) vcan0 200#0F005000AC2FB01D
(1705638751.455000) vcan0 200#10005000662FB01D
(1705638751.458402) vcan0 790#CFF4E8972A
(1705638751.460000) vcan0 200#10005000482FB01D
(1705638751.461514) vcan0 1FA#6F14E38AB116731F
(1705638751.465000) vcan0 200#11005000FB2EB01D
(1705638751.469218) vcan0 6C9#B4F0833FD6
(1705638751.470000) vcan0 200#110050009A2FB01D
(1705638751.472406) vcan0 72E#5586B826A5DD
(1705638751.475000) vcan0 200#120050000A2FB01D
(1705638751.476594) vcan0 089#FE3C1F
(1705638751.480000) vcan0 200#12005000312FB01D
(1705638751.482939) vcan0 116#3047E3
(1705638751.485000) vcan0 200#13005000C02FB01D
(1705638751.490000) vcan0 200#13005000062FB01D
(1705638751.495000) vcan0 200#140050008F2FB01D
(1705638751.498084) vcan0 3F0#FE32BE43F9CCB058
(1705638751.500000) vcan0 200#140050003D2FB01D
(1705638751.505000) vcan0 200#150050001C2FB01D
(1705638751.510000) vcan0 200#15005000822FB01D
(1705638751.512070) vcan0 716#F6
(1705638751.515000) vcan0 200#160050007B2FB01D
(1705638751.520000) vcan0 200#16005000812FB01D
(1705638751.523283) vcan0 511#0569E0
(1705638751.525000) vcan0 200#17005000732FB01D
(1705638751.529302) vcan0 3C3#F910
(1705638751.530000) vcan0 200#17005000C42FB01D
(1705638751.535000) vcan0 200#18005000762FB01D
(1705638751.539553) vcan0 744#019343E68F17CB
(1705638751.540000) vcan0 200#18005000162FB01D
(1705638751.544767) vcan0 5E5#1543303D
(1705638751.545000) vcan0 200#19005000C62FB01D
(1705638751.550000) vcan0 200#19005000742FB01D
(1705638751.555000) vcan0 200#1A005000B32FB01D
(1705638751.560000) vcan0 200#1A005000112FB01D
(1705638751.564192) vcan0 625#5BE46A377498
(1705638751.565000) vcan0 200#1B005000812FB01D
(1705638751.565280) vcan0 025#83E881F2
(1705638751.570000) vcan0 200#1C0050002A2FB01D
(1705638751.573420) vcan0 160#62D721D67E
(1705638751.575000) vcan0 200#1C0050009C2FB01D
(1705638751.579521) vcan0 089#52AFCC
(1705638751.580000) vcan0 200#1D005000EA2EB01D
(1705638751.584724) vcan0 504#17889BD660D542
(1705638751.585000) vcan0 200#1D0050000B2FB01D
(1705638751.588262) vcan0 7A2#CCA6F84F690362
(1705638751.590000) vcan0 200#1E005000D32FB01D
(1705638751.595000) vcan0 200#1E005000CC2FB01D
(1705638751.597405) vcan0 5DF#D95F1A4BE53FD7
(1705638751.600000) vcan0 200#1F0050003F2FB01D
(1705638751.603238) vcan0 498#891EDCF901B4
(1705638751.605000) vcan0 200#1F005000992FB01D
(1705638751.609746) vcan0 2AE#F2FE
(1705638751.610000) vcan0 200#20005000792FB01D
(1705638751.613518) vcan0 4DC#3C2B
(1705638751.615000) vcan0 200#20005000BE2FB01D
(1705638751.620000) vcan0 200#210050008E2FB01D
(1705638751.623339) vcan0 3CC#1D1A3467CC19
(1705638751.625000) vcan0 200#210050000B2FB01D
(1705638751.625789) vcan0 600#17AF5565C6BC
(1705638751.630000) vcan0 200#22005000CE2FB01D
(1705638751.635000) vcan0 200#22005000442FB01D
(1705638751.635288) vcan0 0AB#65AE77CDA9E2
(1705638751.640000) vcan0 200#230050005B2FB01D
(1705638751.645000) vcan0 200#23005000BE2FB01D
(1705638751.650000) vcan0 200#24005000F52EB01D
(1705638751.654423) vcan0 751#5F87CB2103D90A09
(1705638751.655000) vcan0 200#24005000952FB01D
(1705638751.655775) vcan0 508#23E74CC4114B
(1705638751.660000) vcan0 200#25005000142FB01D
(1705638751.660988) vcan0 7E1#248759
(1705638751.665000) vcan0 200#25005000572FB01D
(1705638751.669327) vcan0 122#C821DAC5F0
(1705638751.670000) vcan0 200#26005000232FB01D
(1705638751.675000) vcan0 200#260050005A2FB01D
(1705638751.678308) vcan0 559#5A4A88
(1705638751.680000) vcan0 200#27005000E32EB01D
(1705638751.682962) vcan0 409#5C
(1705638751.685000) vcan0 200#27005000702FB01D
(1705638751.690000) vcan0 200#28005000AB2FB01D
(1705638751.692317) vcan0 417#37FCB422280DF040
(1705638751.695000) vcan0 200#290050007D2FB01D
(1705638751.700000) vcan0 200#29005000892FB01D
(1705638751.700137) vcan0 5D0#9857
(1705638751.705000) vcan0 200#2A005000492FB01D
(1705638751.705329) vcan0 715#C9FB
(1705638751.710000) vcan0 200#2A005000E82EB01D
(1705638751.712533) vcan0 3AB#00F1D5CBD655D2
(1705638751.715000) vcan0 200#2B005000712FB01D
(1705638751.716730) vcan0 678#8B97
(1705638751.720000) vcan0 200#2B005000D22FB01D
(1705638751.725000) vcan0 200#2C005000742FB01D
(1705638751.726026) vcan0 714#9E71DD
(1705638751.730000) vcan0 200#2C005000032FB01D
(1705638751.735000) vcan0 200#2D005000172FB01D
(1705638751.740000) vcan0 200#2D005000BD2FB01D
(1705638751.744110) vcan0 379#20
(1705638751.745000) vcan0 200#2E0050003D2FB01D
(1705638751.745154) vcan0 02F#3263
(1705638751.750000) vcan0 200#2E005000C62FB01D
(1705638751.750275) vcan0 040#24D36585D2
(1705638751.755000) vcan0 200#2F005000D62FB01D
(1705638751.758362) vcan0 225#1BF6D07F
(1705638751.760000) vcan0 200#2F0050001B2FB01D
(1705638751.762414) vcan0 28F#05
(1705638751.765000) vcan0 200#300050002F2FB01D
(1705638751.769535) vcan0 1F2#1E2FD6
(1705638751.770000) vcan0 200#30005000EA2EB01D
(1705638751.775000) vcan0 200#31005000672FB01D
(1705638751.780000) vcan0 200#31005000C32FB01D
(1705638751.785000) vcan0 200#320050002E2FB01D
(1705638751.785541) vcan0 3FE#D6B3C4DF
(1705638751.790000) vcan0 200#32005000782FB01D
(1705638751.790490) vcan0 1BF#D6B05EE8F06FA38E
(1705638751.795000) vcan0 200#33005000272FB01D
(1705638751.800000) vcan0 200#33005000E22EB01D
(1705638751.805000) vcan0 200#34005000E72EB01D
(1705638751.809744) vcan0 7F6#6A613030AAEB
(1705638751.810000) vcan0 200#340050000C2FB01D
(1705638751.813780) vcan0 6F7#7C404B3ACBBB
(1705638751.815000) vcan0 200#35005000C02FB01D
(1705638751.820000) vcan0 200#360050009C2FB01D
(1705638751.823949) vcan0 6B7#1590AAAA8D95
(1705638751.825000) vcan0 200#36005000EE2EB01D
(1705638751.827036) vcan0 480#9608
(1705638751.830000) vcan0 200#37005000C92FB01D
(1705638751.835000) vcan0 200#370050003E2FB01D
(1705638751.840000) vcan0 200#38005000382FB01D
(1705638751.845000) vcan0 200#380050005F2FB01D
(1705638751.846281) vcan0 719#65
(1705638751.850000) vcan0 200#39005000A22FB01D
(1705638751.853482) vcan0 69B#9086EBA7AB
(1705638751.855000) vcan0 200#39005000C62FB01D
(1705638751.855283) vcan0 18D#A53B3C17A0
(1705638751.860000) vcan0 200#3A005000982FB01D
(1705638751.865000) vcan0 200#3A005000852FB01D
(1705638751.870000) vcan0 200#3B0050001B2FB01D
(1705638751.872377) vcan0 2B0#91
(1705638751.875000) vcan0 200#3B005000602FB01D
(1705638751.877348) vcan0 4F7#7865DDE3
(1705638751.880000) vcan0 200#3C0050006A2FB01D
(1705638751.883248) vcan0 19E#59EA6740
(1705638751.885000) vcan0 200#3C0050008C2FB01D
(1705638751.889261) vcan0 607#B0026257F2EB
(1705638751.890000) vcan0 200#3D005000F72EB01D
(1705638751.895000) vcan0 200#3D005000BF2FB01D
(1705638751.900000) vcan0 200#3E005000162FB01D
(1705638751.903655) vcan0 320#E4D94C39
(1705638751.905000) vcan0 200#3E005000802FB01D
(1705638751.910000) vcan0 200#3F005000962FB01D
(1705638751.915000) vcan0 200#3F005000D62FB01D
(1705638751.918362) vcan0 6A2#C9C50177C7
(1705638751.920000) vcan0 200#40005000082FB01D
(1705638751.922475) vcan0 00B#7DF7F8C3D542B0
(1705638751.925000) vcan0 200#40005000AE2FB01D
(1705638751.930000) vcan0 200#41005000482FB01D
(1705638751.935000) vcan0 200#410050007D2FB01D
(1705638751.937368) vcan0 682#F724A287
(1705638751.940000) vcan0 200#42005000CD2FB01D
(1705638751.945000) vcan0 200#43005000892FB01D
(1705638751.948184) vcan0 718#5E22717492
(1705638751.950000) vcan0 200#43005000E12EB01D
(1705638751.952421) vcan0 78D#FC382C72
(1705638751.955000) vcan0 200#44005000F92EB01D
(1705638751.960000) vcan0 200#44005000782FB01D
(1705638751.962305) vcan0 309#C63555
(1705638751.965000) vcan0 200#45005000D02FB01D
(1705638751.970000) vcan0 200#450050003F2FB01D
(1705638751.975000) vcan0 200#46005000B42FB01D
(1705638751.975899) vcan0 76C#E758
(1705638751.980000) vcan0 200#46005000962FB01D
(1705638751.984235) vcan0 68B#A1
(1705638751.985000) vcan0 200#47005000EF2EB01D
(1705638751.990000) vcan0 200#470050006B2FB01D
(1705638751.993317) vcan0 291#49AF77581A
(1705638751.995000) vcan0 200#48005000212FB01D
(1705638751.997163) vcan0 506#A5AA6C191ACBFE07
(1705638752.000000) vcan0 200#48005000722FB01D
(1705638752.000345) vcan0 7A4#35C39F9B5B965897
(1705638752.005000) vcan0 200#49005000112FB01D
(1705638752.005021) vcan0 042#BF2D
(1705638752.010000) vcan0 200#49005000F22EB01D
(1705638752.013326) vcan0 7FE#363432C1
(1705638752.015000) vcan0 200#4A005000432FB01D
(1705638752.019742) vcan0 0A6#3B24A2D112
(1705638752.020000) vcan0 200#4A005000BC2FB01D
(1705638752.020069) vcan0 5B1#BA17
(1705638752.025000) vcan0 200#4B0050009F2FB01D
(1705638752.030000) vcan0 200#4B005000312FB01D
(1705638752.033621) vcan0 1B1#DBAC3A8B
(1705638752.035000) vcan0 200#4C005000B92FB01D
(1705638752.040000) vcan0 200#4C005000932FB01D
(1705638752.040695) vcan0 180#DBB230E57A3A
(1705638752.045000) vcan0 200#4D005000F32EB01D
(1705638752.047525) vcan0 616#280FC4E6
(1705638752.050000) vcan0 200#4D005000072FB01D
(1705638752.053531) vcan0 4F4#27
(1705638752.055000) vcan0 200#4E005000EC2EB01D
(1705638752.060000) vcan0 200#4E0050009C2FB01D
(1705638752.063737) vcan0 092#8354EB03
(1705638752.065000) vcan0 200#4F0050005C2FB01D
(1705638752.068341) vcan0 76A#6C
(1705638752.070000) vcan0 200#50005000972FB01D
(1705638752.071450) vcan0 748#1BAD
(1705638752.075000) vcan0 200#500050008C2FB01D
(1705638752.080000) vcan0 200#510050005C2FB01D
(1705638752.085000) vcan0 200#51005000A92FB01D
(1705638752.089775) vcan0 348#9BD74D36
(1705638752.090000) vcan0 200#520050005D2FB01D
(1705638752.095000) vcan0 200#52005000E92EB01D
(1705638752.096780) vcan0 413#2FB94D
(1705638752.100000) vcan0 200#53005000692FB01D
(1705638752.101902) vcan0 126#E31D
(1705638752.105000) vcan0 200#53005000832FB01D
(1705638752.110000) vcan0 200#54005000192FB01D
(1705638752.110618) vcan0 556#E4C5F456E5457CCD
(1705638752.115000) vcan0 200#54005000DC2FB01D
(1705638752.117269) vcan0 2EC#3B3096D1
(1705638752.120000) vcan0 200#55005000A62FB01D
(1705638752.123891) vcan0 6C5#6FB334F43F78D6
(1705638752.125000) vcan0 200#55005000162FB01D
(1705638752.129252) vcan0 3D6#3E33665C
(1705638752.130000) vcan0 200#560050005D2FB01D
(1705638752.135000) vcan0 200#56005000902FB01D
(1705638752.140000) vcan0 200#57005000FA2EB01D
(1705638752.144012) vcan0 3E3#0B63
(1705638752.145000) vcan0 200#57005000482FB01D
(1705638752.149521) vcan0 66F#320C18
(1705638752.150000) vcan0 200#580050002D2FB01D
(1705638752.154994) vcan0 7F1#70E846FB782A5F14
(1705638752.155000) vcan0 200#58005000C02FB01D
(1705638752.159345) vcan0 0B0#CAC02C4B
(1705638752.160000) vcan0 200#59005000A62FB01D
(1705638752.162908) vcan0 391#1A567BA4
(1705638752.165000) vcan0 200#59005000082FB01D
(1705638752.170000) vcan0 200#5A005000A72FB01D
(1705638752.173930) vcan0 7D8#C7
(1705638752.175000) vcan0 200#5A005000292FB01D
(1705638752.176147) vcan0 5FA#58BB0A4629850146
(1705638752.180000) vcan0 200#5B005000972FB01D
(1705638752.184168) vcan0 378#D3
(1705638752.185000) vcan0 200#5B005000CB2FB01D
(1705638752.189576) vcan0 2E5#71
(1705638752.190000) vcan0 200#5C0050009D2FB01D
(1705638752.191054) vcan0 47E#DF9D1BD8C8B9
(1705638752.195000) vcan0 200#5D0050002E2FB01D
(1705638752.200000) vcan0 200#5D005000DD2FB01D
(1705638752.202859) vcan0 3F2#2162A0C3FE8D
(1705638752.205000) vcan0 200#5E005000982FB01D
(1705638752.210000) vcan0 200#5E005000CB2FB01D
(1705638752.213348) vcan0 24A#EDA5F5D9
(1705638752.215000) vcan0 200#5F0050002C2FB01D
(1705638752.219542) vcan0 029#CD5507AFAC5B
(1705638752.220000) vcan0 200#5F005000AF2FB01D
(1705638752.221209) vcan0 223#63763DB044CEAA
(1705638752.225000) vcan0 200#600050006F2FB01D
(1705638752.227888) vcan0 1FA#8591
(1705638752.230000) vcan0 200#60005000A92FB01D
(1705638752.230152) vcan0 2AF#633E9D35EEC9B6E1
(1705638752.235000) vcan0 200#61005000032FB01D
(1705638752.235765) vcan0 675#8BE6
(1705638752.240000) vcan0 200#61005000602FB01D
(1705638752.245000) vcan0 200#62005000E02EB01D
(1705638752.249509) vcan0 7FD#B7817BF7
(1705638752.250000) vcan0 200#62005000632FB01D
(1705638752.255000) vcan0 200#63005000A72FB01D
(1705638752.260000) vcan0 200#63005000EE2EB01D
(1705638752.260048) vcan0 04D#FE99FEA6D8D7
(1705638752.265000) vcan0 200#64005000B22FB01D
(1705638752.268609) vcan0 1DB#51FE67FA440887
(1705638752.270000) vcan0 200#64005000F32EB01D
(1705638752.275000) vcan0 200#65005000F92EB01D
(1705638752.277542) vcan0 11D#54B871
(1705638752.280000) vcan0 200#650050007F2FB01D
(1705638752.284570) vcan0 29A#7E26B752
(1705638752.285000) vcan0 200#66005000432FB01D
(1705638752.286224) vcan0 6A2#5ACFFCBB8AE4
(1705638752.290000) vcan0 200#66005000422FB01D
(1705638752.295000) vcan0 200#670050005C2FB01D
(1705638752.299836) vcan0 0AC#914023FF2E9ACC
(1705638752.300000) vcan0 200#67005000EB2EB01D
(1705638752.301742) vcan0 5DE#CFD1EB84
(1705638752.305000) vcan0 200#68005000742FB01D
(1705638752.306214) vcan0 6AB#15C4895A
(1705638752.310000) vcan0 200#68005000702FB01D
(1705638752.315000) vcan0 200#69005000832FB01D
(1705638752.315281) vcan0 034#BF8E386ACCD49482
(1705638752.320000) vcan0 200#6A005000E62EB01D
(1705638752.321964) vcan0 793#576BF74A82
(1705638752.325000) vcan0 200#6A005000DD2FB01D
(1705638752.330000) vcan0 200#6B005000232FB01D
(1705638752.334172) vcan0 03E#7969CACA1931C197
(1705638752.335000) vcan0 200#6B005000392FB01D
(1705638752.336834) vcan0 092#299924
(1705638752.340000) vcan0 200#6C005000262FB01D
(1705638752.345000) vcan0 200#6C005000DC2FB01D
(1705638752.347551) vcan0 257#3B6F6DE89F
(1705638752.350000) vcan0 200#6D0050002A2FB01D
(1705638752.352086) vcan0 5F1#8B
(1705638752.355000) vcan0 200#6D005000872FB01D
(1705638752.360000) vcan0 200#6E005000482FB01D
(1705638752.361346) vcan0 027#2A250A1E139A31
(1705638752.365000) vcan0 200#6E005000562FB01D
(1705638752.367238) vcan0 56C#E0
(1705638752.370000) vcan0 200#6F005000ED2EB01D
(1705638752.375000) vcan0 200#6F005000A42FB01D
(1705638752.380000) vcan0 200#70005000742FB01D
(1705638752.385000) vcan0 200#70005000A02FB01D
(1705638752.390000) vcan0 200#71005000AB2FB01D
(1705638752.391703) vcan0 55D#02F4997B7D95
(1705638752.395000) vcan0 200#71005000E32EB01D
(1705638752.396337) vcan0 469#F0C356033A
(1705638752.400000) vcan0 200#72005000902FB01D
(1705638752.405000) vcan0 200#72005000392FB01D
(1705638752.410000) vcan0 200#73005000FE2EB01D
(1705638752.415000) vcan0 200#730050007A2FB01D
(1705638752.418103) vcan0 02F#1BD64C43
(1705638752.420000) vcan0 200#74005000372FB01D
(1705638752.425000) vcan0 200#74005000B72FB01D
(1705638752.430000) vcan0 200#75005000782FB01D
(1705638752.435000) vcan0 200#75005000A62FB01D
(1705638752.438446) vcan0 7DB#47D9DE0231D4BBA5
(1705638752.440000) vcan0 200#760050009C2FB01D
(1705638752.440951) vcan0 211#17F1
(1705638752.445000) vcan0 200#770050007E2FB01D
(1705638752.446576) vcan0 5FC#A9
(1705638752.450000) vcan0 200#770050000F2FB01D
(1705638752.455000) vcan0 200#78005000E82EB01D
(1705638752.460000) vcan0 200#78005000232FB01D
(1705638752.462386) vcan0 7B9#24AB0F0201
(1705638752.465000) vcan0 200#79005000CA2FB01D
(1705638752.470000) vcan0 200#79005000332FB01D
(1705638752.475000) vcan0 200#7A005000062FB01D
(1705638752.477521) vcan0 131#3BDF25D9
(1705638752.480000) vcan0 200#7A005000CB2FB01D
(1705638752.482300) vcan0 15C#7EEDD2
(1705638752.485000) vcan0 200#7B005000772FB01D
(1705638752.490000) vcan0 200#7B005000432FB01D
(1705638752.492976) vcan0 39B#07
(1705638752.495000) vcan0 200#7C005000BD2FB01D
(1705638752.499292) vcan0 14C#049B7C30918791
(1705638752.500000) vcan0 200#7C005000F02EB01D
(1705638752.505000) vcan0 200#7D005000312FB01D
(1705638752.506397) vcan0 7E4#AD3067AB45CB51
(1705638752.510000) vcan0 200#7D005000392FB01D
(1705638752.511920) vcan0 208#F52EBCE475
(1705638752.515000) vcan0 200#7E005000842FB01D
(1705638752.519539) vcan0 698#B510A0C621
(1705638752.520000) vcan0 200#7E005000652FB01D
(1705638752.525000) vcan0 200#7F005000B92FB01D
(1705638752.529188) vcan0 299#326D4C84
(1705638752.530000) vcan0 200#7F005000382FB01D
(1705638752.535000) vcan0 330#AEED78
(1705638752.535000) vcan0 200#80005000BB2FB01D
(1705638752.540000) vcan0 200#800050006A2FB01D
(1705638752.542619) vcan0 5AA#66D425D1292FE0
(1705638752.545000) vcan0 200#81005000A02FB01D
(1705638752.545640) vcan0 5FF#302A1239
(1705638752.550000) vcan0 200#81005000922FB01D
(1705638752.553224) vcan0 16E#106A00049E
(1705638752.555000) vcan0 200#82005000502FB01D
(1705638752.560000) vcan0 200#82005000782FB01D
(1705638752.565000) vcan0 200#830050008F2FB01D
(1705638752.570000) vcan0 200#84005000732FB01D
(1705638752.571353) vcan0 277#3A4DCD889F46
(1705638752.575000) vcan0 200#84005000D32FB01D
(1705638752.580000) vcan0 200#85005000DF2FB01D
(1705638752.580928) vcan0 649#DC906E52AC
(1705638752.585000) vcan0 200#85005000342FB01D
(1705638752.588215) vcan0 4F4#3697896AD5
(1705638752.590000) vcan0 200#860050001A2FB01D
(1705638752.591438) vcan0 2C3#20
(1705638752.595000) vcan0 200#86005000572FB01D
(1705638752.596783) vcan0 7AB#9AA71FD3
(1705638752.600000) vcan0 200#87005000302FB01D
(1705638752.605000) vcan0 200#87005000F92EB01D
(1705638752.605050) vcan0 403#6DCF6D49CDA465
(1705638752.610000) vcan0 200#880050003C2FB01D
(1705638752.615000) vcan0 200#880050009B2FB01D
(1705638752.615407) vcan0 7D3#A6B2
(1705638752.620000) vcan0 200#89005000392FB01D
(1705638752.622284) vcan0 06F#7253
(1705638752.625000) vcan0 200#89005000A02FB01D
(1705638752.630000) vcan0 200#8A005000772FB01D
(1705638752.630422) vcan0 6CF#27
(1705638752.635000) vcan0 200#8A005000DF2FB01D
(1705638752.639283) vcan0 25D#18
(1705638752.640000) vcan0 200#8B005000772FB01D
(1705638752.643406) vcan0 5B8#B6FB3C
(1705638752.645000) vcan0 200#8B005000312FB01D
(1705638752.649916) vcan0 6E0#FAEC
(1705638752.650000) vcan0 200#8C005000812FB01D
(1705638752.654996) vcan0 0EE#63
(1705638752.655000) vcan0 200#8C005000252FB01D
(1705638752.655875) vcan0 5D2#8F4AE9AA
(1705638752.660000) vcan0 200#8D0050007D2FB01D
(1705638752.665000) vcan0 200#8D005000782FB01D
(1705638752.666162) vcan0 220#6E5EEAD27E27
(1705638752.670000) vcan0 200#8E0050007F2FB01D
(1705638752.675000) vcan0 200#8E005000B82FB01D
(1705638752.677639) vcan0 727#78DA3D9BA2
(1705638752.680000) vcan0 200#8F005000C32FB01D
(1705638752.685000) vcan0 200#8F0050008F2FB01D
(1705638752.688628) vcan0 257#0FC16C91378626
(1705638752.690000) vcan0 200#90005000512FB01D
(1705638752.695000) vcan0 200#91005000092FB01D
(1705638752.699300) vcan0 009#5695FC8C
(1705638752.700000) vcan0 200#910050003D2FB01D
(1705638752.704880) vcan0 584#A458C4A8BAEE
(1705638752.705000) vcan0 200#920050001F2FB01D
(1705638752.709382) vcan0 2A3#86C6499E
(1705638752.710000) vcan0 200#92005000302FB01D
(1705638752.713244) vcan0 105#85EDC46E4AC9FA1F
(1705638752.715000) vcan0 200#930050002E2FB01D
(1705638752.716112) vcan0 62C#C6
(1705638752.720000) vcan0 200#93005000C72FB01D
(1705638752.725000) vcan0 200#94005000522FB01D
(1705638752.729788) vcan0 22E#33B4
(1705638752.730000) vcan0 200#94005000462FB01D
(1705638752.732434) vcan0 64A#0650B49FEC736D
(1705638752.735000) vcan0 200#95005000BD2FB01D
(1705638752.740000) vcan0 200#95005000F92EB01D
(1705638752.743364) vcan0 1B3#5655122F
(1705638752.745000) vcan0 200#960050001E2FB01D
(1705638752.747792) vcan0 545#18892C9C27
(1705638752.750000) vcan0 200#96005000562FB01D
(1705638752.752493) vcan0 121#6ABD30DF15
(1705638752.755000) vcan0 200#97005000F82EB01D
(1705638752.760000) vcan0 200#97005000CA2FB01D
(1705638752.762659) vcan0 54C#6437C96A
(1705638752.765000) vcan0 200#98005000522FB01D
(1705638752.768968) vcan0 7DE#B50A
(1705638752.770000) vcan0 200#98005000D52FB01D
(1705638752.772006) vcan0 572#9E69AE8F5669C5
(1705638752.775000) vcan0 200#99005000A32FB01D
(1705638752.780000) vcan0 200#99005000B72FB01D
(1705638752.784950) vcan0 7E2#B0657A3AD2
(1705638752.785000) vcan0 200#9A005000C42FB01D
(1705638752.789593) vcan0 2C1#BF
(1705638752.790000) vcan0 200#9A005000D22FB01D
(1705638752.795000) vcan0 200#9B005000E32EB01D
(1705638752.797869) vcan0 249#1876DEC1F3406588
(1705638752.800000) vcan0 200#9B0050006E2FB01D
(1705638752.801677) vcan0 763#522775B2499223
(1705638752.805000) vcan0 200#9C005000FB2EB01D
(1705638752.806958) vcan0 515#A53757BE06BF6D62
(1705638752.810000) vcan0 200#9C005000442FB01D
(1705638752.811369) vcan0 012#FF3E27F3A8B8E2
(1705638752.815000) vcan0 200#9D005000B02FB01D
(1705638752.820000) vcan0 200#9E0050001A2FB01D
(1705638752.825000) vcan0 200#9E005000A82FB01D
(1705638752.825317) vcan0 65A#D805E2F7A481B960
(1705638752.830000) vcan0 200#9F005000412FB01D
(1705638752.831700) vcan0 031#92F96DA2011544
(1705638752.835000) vcan0 200#9F005000C22FB01D
(1705638752.840000) vcan0 200#A00050002E2FB01D
(1705638752.843302) vcan0 0ED#DBD99C2CFCDD00
(1705638752.845000) vcan0 200#A0005000202FB01D
(1705638752.846651) vcan0 515#55
(1705638752.850000) vcan0 200#A1005000802FB01D
(1705638752.855000) vcan0 200#A1005000B02FB01D
(1705638752.860000) vcan0 200#A2005000AC2FB01D
(1705638752.865000) vcan0 200#A2005000A52FB01D
(1705638752.870000) vcan0 200#A30050001A2FB01D
(1705638752.870094) vcan0 2EB#0161
(1705638752.875000) vcan0 200#A3005000A82FB01D
(1705638752.878918) vcan0 726#6479E057E20C38
(1705638752.880000) vcan0 200#A40050008A2FB01D
(1705638752.880340) vcan0 10E#B19E4A
(1705638752.885000) vcan0 200#A4005000B02FB01D
(1705638752.885404) vcan0 3F1#85
(1705638752.890000) vcan0 200#A5005000002FB01D
(1705638752.895000) vcan0 200#A50050007E2FB01D
(1705638752.898854) vcan0 37D#63EC45EF316DD1FE
(1705638752.900000) vcan0 200#A6005000A32FB01D
(1705638752.902016) vcan0 32D#B3496B1D3D
(1705638752.905000) vcan0 200#A6005000E12EB01D
(1705638752.906418) vcan0 054#78D4F1A1D6024D56
(1705638752.910000) vcan0 200#A7005000B22FB01D
(1705638752.914705) vcan0 4D3#CAFF
(1705638752.915000) vcan0 200#A7005000F52EB01D
(1705638752.920000) vcan0 200#A8005000E32EB01D
(1705638752.925000) vcan0 200#A8005000202FB01D
(1705638752.927998) vcan0 51A#BA810545
(1705638752.930000) vcan0 200#A9005000952FB01D
(1705638752.935000) vcan0 200#A9005000C32FB01D
(1705638752.936518) vcan0 43F#57EF14253C
(1705638752.940000) vcan0 200#AA0050007D2FB01D
(1705638752.945000) vcan0 200#AB005000482FB01D
(1705638752.950000) vcan0 200#AB005000082FB01D
(1705638752.955000) vcan0 200#AC005000292FB01D
(1705638752.957696) vcan0 305#E9
(1705638752.960000) vcan0 200#AC0050007A2FB01D
(1705638752.965000) vcan0 200#AD005000E12EB01D
(1705638752.967658) vcan0 3BD#9BA163A312
(1705638752.970000) vcan0 200#AD005000F62EB01D
(1705638752.974674) vcan0 3E8#026E9C37C3
(1705638752.975000) vcan0 200#AE005000992FB01D
(1705638752.980000) vcan0 200#AE0050009E2FB01D
(1705638752.985000) vcan0 200#AF005000002FB01D
(1705638752.987870) vcan0 1FB#B49CDDAEDA224C61
(1705638752.990000) vcan0 200#AF005000482FB01D
(1705638752.994593) vcan0 3FE#2F390A4F
(1705638752.995000) vcan0 200#B0005000B22FB01D
(1705638753.000000) vcan0 200#B0005000C12FB01D
(1705638753.003102) vcan0 033#9D
(1705638753.005000) vcan0 200#B1005000A42FB01D
(1705638753.005065) vcan0 367#39B97D366523
(1705638753.010000) vcan0 200#B1005000B12FB01D
(1705638753.015000) vcan0 200#B20050009A2FB01D
(1705638753.018573) vcan0 3FF#6F
(1705638753.020000) vcan0 200#B2005000542FB01D
(1705638753.022962) vcan0 0B5#F8AE3D4FAB
(1705638753.025000) vcan0 200#B3005000A82FB01D
(1705638753.028525) vcan0 39A#688F2F
(1705638753.030000) vcan0 200#B3005000B32FB01D
(1705638753.033559) vcan0 197#961B1749
(1705638753.035000) vcan0 200#B4005000382FB01D
(1705638753.040000) vcan0 200#B40050007E2FB01D
(1705638753.040381) vcan0 32D#85D2E8
(1705638753.045000) vcan0 200#B5005000092FB01D
(1705638753.048901) vcan0 27D#09F57FDAD212B2
(1705638753.050000) vcan0 200#B5005000C82FB01D
(1705638753.051380) vcan0 4B5#5E006BE7
(1705638753.055000) vcan0 200#B60050000E2FB01D
(1705638753.060000) vcan0 200#B6005000672FB01D
(1705638753.064841) vcan0 528#26606A26A125F505
(1705638753.065000) vcan0 200#B7005000362FB01D
(1705638753.070000) vcan0 200#B8005000D12FB01D
(1705638753.075000) vcan0 200#B8005000252FB01D
(1705638753.075868) vcan0 3E3#E79B35
(1705638753.080000) vcan0 200#B9005000862FB01D
(1705638753.082957) vcan0 6A6#C32CB32E3EFAFC0D
(1705638753.085000) vcan0 200#B9005000202FB01D
(1705638753.090000) vcan0 200#BA005000F82EB01D
(1705638753.095000) vcan0 200#BA005000F42EB01D
(1705638753.099939) vcan0 7E8#096B
(1705638753.100000) vcan0 200#BB005000792FB01D
(1705638753.105000) vcan0 200#BB005000DD2FB01D
(1705638753.109659) vcan0 529#3BB4D7
(1705638753.110000) vcan0 200#BC005000C42FB01D
(1705638753.113484) vcan0 182#A0BB4539D2A7
(1705638753.115000) vcan0 200#BC005000E32EB01D
(1705638753.120000) vcan0 200#BD005000BD2FB01D
(1705638753.125000) vcan0 200#BD005000B32FB01D
(1705638753.126727) vcan0 3D6#FA96E3E5
(1705638753.130000) vcan0 200#BE005000CF2FB01D
(1705638753.134894) vcan0 6B7#DCEFB7991221
(1705638753.135000) vcan0 200#BE005000DA2FB01D
(1705638753.135054) vcan0 1AD#A1F79D6D4CCE57A7
(1705638753.140000) vcan0 200#BF0050000A2FB01D
(1705638753.145000) vcan0 200#BF005000D32FB01D
(1705638753.145409) vcan0 34F#BF0ED40C2B
(1705638753.150000) vcan0 200#C00050005A2FB01D
(1705638753.153585) vcan0 2BC#59FD515ED912C1
(1705638753.155000) vcan0 200#C0005000D32FB01D
(1705638753.158631) vcan0 080#7B9BCF43
(1705638753.160000) vcan0 200#C10050005A2FB01D
(1705638753.165000) vcan0 200#C1005000402FB01D
(1705638753.167399) vcan0 534#35
(1705638753.170000) vcan0 200#C2005000772FB01D
(1705638753.175000) vcan0 200#C2005000C42FB01D
(1705638753.177595) vcan0 639#577E6F2094
(1705638753.180000) vcan0 200#C30050001B2FB01D
(1705638753.185000) vcan0 200#C3005000CD2FB01D
(1705638753.189092) vcan0 7B5#76FEC6
(1705638753.190000) vcan0 200#C4005000F12EB01D
(1705638753.190759) vcan0 2D9#A38B7E3407
(1705638753.195000) vcan0 200#C5005000942FB01D
(1705638753.200000) vcan0 200#C5005000212FB01D
(1705638753.200816) vcan0 39A#483CDF3210B4F9
(1705638753.205000) vcan0 200#C6005000E12EB01D
(1705638753.205399) vcan0 170#5564DC5D
(1705638753.210000) vcan0 200#C6005000572FB01D
(1705638753.215000) vcan0 200#C7005000802FB01D
(1705638753.215282) vcan0 7AD#FD9549368CB405F1
(1705638753.220000) vcan0 200#C7005000972FB01D
(1705638753.225000) vcan0 200#C80050008B2FB01D
(1705638753.227623) vcan0 6D4#D7
(1705638753.230000) vcan0 200#C8005000C82FB01D
(1705638753.235000) vcan0 200#C9005000242FB01D
(1705638753.238626) vcan0 3D8#A0B96573216AE2A4
(1705638753.240000) vcan0 200#C9005000A02FB01D
(1705638753.244436) vcan0 26D#22D495E199E95736
(1705638753.245000) vcan0 200#CA005000D22FB01D
(1705638753.248033) vcan0 278#7D107D
(1705638753.250000) vcan0 200#CA005000522FB01D
(1705638753.250196) vcan0 2B6#4F
(1705638753.255000) vcan0 200#CB005000002FB01D
(1705638753.257156) vcan0 35A#27AC27
(1705638753.260000) vcan0 200#CB005000312FB01D
(1705638753.261933) vcan0 2B3#02AF5CB9
(1705638753.265000) vcan0 200#CC005000AB2FB01D
(1705638753.268754) vcan0 48F#15315361E98636BB
(1705638753.270000) vcan0 200#CC005000382FB01D
(1705638753.270377) vcan0 168#3AA81964
(1705638753.275000) vcan0 200#CD0050000C2FB01D
(1705638753.280000) vcan0 200#CD005000262FB01D
(1705638753.285000) vcan0 200#CE0050000C2FB01D
(1705638753.289965) vcan0 4FC#9F14534B04F5DE86
(1705638753.290000) vcan0 200#CE005000362FB01D
(1705638753.295000) vcan0 200#CF0050004E2FB01D
(1705638753.296844) vcan0 413#55F7938682
(1705638753.300000) vcan0 200#CF0050003A2FB01D
(1705638753.302520) vcan0 319#8A6DDF47
(1705638753.305000) vcan0 200#D0005000312FB01D
(1705638753.306080) vcan0 441#47
(1705638753.310000) vcan0 200#D0005000A22FB01D
(1705638753.310025) vcan0 621#E092C4EF28D9
(1705638753.315000) vcan0 200#D1005000AA2FB01D
(1705638753.320000) vcan0 200#D2005000A42FB01D
(1705638753.321290) vcan0 1C8#B58BB88A2A60
(1705638753.325000) vcan0 200#D2005000FA2EB01D
(1705638753.330000) vcan0 200#D30050006B2FB01D
(1705638753.333876) vcan0 4D1#55
(1705638753.335000) vcan0 200#D3005000BD2FB01D
(1705638753.340000) vcan0 200#D4005000262FB01D
(1705638753.345000) vcan0 200#D4005000C12FB01D
(1705638753.348245) vcan0 570#D1557E6AFB9BA2AC
(1705638753.350000) vcan0 200#D5005000832FB01D
(1705638753.355000) vcan0 200#D5005000112FB01D
(1705638753.358837) vcan0 412#5F9E21
(1705638753.360000) vcan0 200#D6005000F42EB01D
(1705638753.362339) vcan0 185#B84C854F
(1705638753.365000) vcan0 200#D6005000752FB01D
(1705638753.367682) vcan0 2A0#3153DE3F
(1705638753.370000) vcan0 200#D7005000C72FB01D
(1705638753.375000) vcan0 200#D7005000392FB01D
(1705638753.380000) vcan0 200#D8005000422FB01D
(1705638753.385000) vcan0 200#D80050005E2FB01D
(1705638753.387318) vcan0 4FF#5B5DEA37DE05AC
(1705638753.390000) vcan0 200#D9005000E92EB01D
(1705638753.395000) vcan0 200#D9005000422FB01D
(1705638753.395031) vcan0 0DE#97
(1705638753.400000) vcan0 200#DA005000482FB01D
(1705638753.405000) vcan0 200#DA005000F12EB01D
(1705638753.410000) vcan0 200#DB005000082FB01D
(1705638753.412570) vcan0 4B6#3B09D9D38A2BEB5A
(1705638753.415000) vcan0 200#DB0050000A2FB01D
(1705638753.416593) vcan0 6B2#4031154CA8BBA625
(1705638753.420000) vcan0 200#DC005000CA2FB01D
(1705638753.424433) vcan0 4F6#C2
(1705638753.425000) vcan0 200#DC005000952FB01D
(1705638753.425046) vcan0 4F6#E6850D1F5753
(1705638753.430000) vcan0 200#DD0050004D2FB01D
(1705638753.430444) vcan0 12D#CE97B6
(1705638753.435000) vcan0 200#DD005000262FB01D
(1705638753.435075) vcan0 7A4#096F772A84545819
(1705638753.440000) vcan0 200#DE005000372FB01D
(1705638753.445000) vcan0 200#DF0050000A2FB01D
(1705638753.450000) vcan0 200#DF005000C22FB01D
(1705638753.450679) vcan0 145#1F6A5E
(1705638753.455000) vcan0 200#E0005000D52FB01D
(1705638753.458186) vcan0 555#CA798B1263
(1705638753.460000) vcan0 200#E00050004A2FB01D
(1705638753.465000) vcan0 200#E1005000F02EB01D
(1705638753.469505) vcan0 6F3#1396A2C2
(1705638753.470000) vcan0 200#E1005000FB2EB01D
(1705638753.474197) vcan0 0E7#0AF73114DB
(1705638753.475000) vcan0 200#E2005000C12FB01D
(1705638753.477422) vcan0 40A#718944
(1705638753.480000) vcan0 200#E2005000E72EB01D
(1705638753.485000) vcan0 200#E30050004D2FB01D
(1705638753.486681) vcan0 283#8D
(1705638753.490000) vcan0 200#E3005000072FB01D
(1705638753.494978) vcan0 14D#6745
(1705638753.495000) vcan0 200#E4005000922FB01D
(1705638753.500000) vcan0 200#E4005000182FB01D
(1705638753.502647) vcan0 7E8#F2947981
(1705638753.505000) vcan0 200#E5005000792FB01D
(1705638753.510000) vcan0 200#E5005000612FB01D
(1705638753.514746) vcan0 7BD#46582C749B39
(1705638753.515000) vcan0 200#E60050002A2FB01D
(1705638753.515143) vcan0 6E5#8C70C30F
(1705638753.520000) vcan0 200#E6005000D02FB01D
(1705638753.525000) vcan0 200#E7005000002FB01D
(1705638753.529751) vcan0 382#86F1738C
(1705638753.530000) vcan0 200#E7005000062FB01D
(1705638753.533715) vcan0 436#7319498B000AAC3B
(1705638753.535000) vcan0 200#E8005000FC2EB01D
(1705638753.536676) vcan0 2F1#ACEA078B9DE3AF
(1705638753.540000) vcan0 200#E8005000902FB01D
(1705638753.542899) vcan0 47E#230B1C143852A0
(1705638753.545000) vcan0 200#E9005000882FB01D
(1705638753.548490) vcan0 004#EA
(1705638753.550000) vcan0 200#E90050006B2FB01D
(1705638753.555000) vcan0 200#EA005000CB2FB01D
(1705638753.557073) vcan0 20B#2E43EC5623
(1705638753.560000) vcan0 200#EA005000882FB01D
(1705638753.561831) vcan0 44B#8207BF
(1705638753.565000) vcan0 200#EB005000ED2EB01D
(1705638753.566247) vcan0 20B#12
(1705638753.570000) vcan0 200#EC005000BA2FB01D
(1705638753.572087) vcan0 4FA#4F1B2D3F49B640
(1705638753.575000) vcan0 200#EC005000C12FB01D
(1705638753.575330) vcan0 097#BA4596E155A77616
(1705638753.580000) vcan0 200#ED005000C32FB01D
(1705638753.585000) vcan0 200#ED005000D82FB01D
(1705638753.588994) vcan0 5D7#DD1513
(1705638753.590000) vcan0 200#EE0050003A2FB01D
(1705638753.594239) vcan0 411#E86793E5B332F907
(1705638753.595000) vcan0 200#EE005000842FB01D
(1705638753.600000) vcan0 200#EF0050007E2FB01D
(1705638753.601092) vcan0 66B#3BA30A
(1705638753.605000) vcan0 200#EF005000582FB01D
(1705638753.610000) vcan0 200#F00050008D2FB01D
(1705638753.611346) vcan0 658#96CEAE37D1
(1705638753.615000) vcan0 200#F0005000A02FB01D
(1705638753.616981) vcan0 15C#E9170759
(1705638753.620000) vcan0 200#F1005000992FB01D
(1705638753.625000) vcan0 200#F1005000182FB01D
(1705638753.626047) vcan0 2CE#25A01B2E
(1705638753.630000) vcan0 200#F2005000B32FB01D
(1705638753.631205) vcan0 780#A1C0EB
(1705638753.635000) vcan0 200#F2005000422FB01D
(1705638753.640000) vcan0 200#F30050008F2FB01D
(1705638753.644496) vcan0 2EF#466F0D38E8
(1705638753.645000) vcan0 200#F30050003D2FB01D
(1705638753.650000) vcan0 200#F4005000042FB01D
(1705638753.651070) vcan0 3D2#82B67BA7F07E
(1705638753.655000) vcan0 200#F4005000BB2FB01D
(1705638753.660000) vcan0 200#F50050003A2FB01D
(1705638753.665000) vcan0 200#F5005000EB2EB01D
(1705638753.668657) vcan0 026#0652D1E7744B7B
(1705638753.670000) vcan0 200#F6005000432FB01D
(1705638753.674716) vcan0 5B4#5520D5A6C12C
(1705638753.675000) vcan0 200#F60050003A2FB01D
(1705638753.679399) vcan0 5A5#CC
(1705638753.680000) vcan0 200#F7005000722FB01D
(1705638753.681024) vcan0 038#F2782E73
(1705638753.685000) vcan0 200#F7005000782FB01D
(1705638753.689156) vcan0 263#A561
(1705638753.690000) vcan0 200#F8005000322FB01D
(1705638753.692515) vcan0 3EE#F8F812
(1705638753.695000) vcan0 200#F9005000872FB01D
(1705638753.697009) vcan0 610#4E7E714C
(1705638753.700000) vcan0 200#F9005000C72FB01D
(1705638753.705000) vcan0 200#FA005000642FB01D
(1705638753.705466) vcan0 639#4B8672
(1705638753.710000) vcan0 200#FA005000192FB01D
(1705638753.710970) vcan0 0D3#A329A055
(1705638753.715000) vcan0 200#FB005000682FB01D
(1705638753.720000) vcan0 200#FB005000682FB01D
(1705638753.721848) vcan0 573#15
(1705638753.725000) vcan0 200#FC005000942FB01D
(1705638753.726089) vcan0 602#AF46AD78
(1705638753.730000) vcan0 200#FC0050005E2FB01D
(1705638753.731567) vcan0 77B#7B2C35
(1705638753.735000) vcan0 200#FD005000B92FB01D
(1705638753.739888) vcan0 65B#1C796D42C8
(1705638753.740000) vcan0 200#FD005000CF2FB01D
(1705638753.745000) vcan0 200#FE005000A72FB01D
(1705638753.750000) vcan0 200#FE005000F82EB01D
(1705638753.751740) vcan0 70F#EEFD5839814B8548
(1705638753.755000) vcan0 200#FF005000CB2FB01D
(1705638753.755261) vcan0 359#4E7A6E
(1705638753.760000) vcan0 200#FF0050001B2FB01D
(1705638753.762538) vcan0 7DC#24AC7A
(1705638753.765000) vcan0 200#00015000B52FB01D
(1705638753.769094) vcan0 3A2#22D48FBCD71666A2
(1705638753.770000) vcan0 200#00015000F22EB01D
(1705638753.771585) vcan0 41A#D49A0560934D
(1705638753.775000) vcan0 200#01015000692FB01D
(1705638753.779865) vcan0 36A#45201631ADE9A44D
(1705638753.780000) vcan0 200#01015000632FB01D
(1705638753.781186) vcan0 377#EA61D097B50C56
(1705638753.785000) vcan0 200#02015000EB2EB01D
(1705638753.786746) vcan0 7B0#12DFDD
(1705638753.790000) vcan0 200#02015000042FB01D
(1705638753.790319) vcan0 085#EDBF9DE814E4
(1705638753.795000) vcan0 200#03015000952FB01D
(1705638753.800000) vcan0 200#03015000CF2FB01D
(1705638753.800658) vcan0 070#210EAC62C6
(1705638753.805000) vcan0 200#04015000582FB01D
(1705638753.808871) vcan0 744#00A259
(1705638753.810000) vcan0 200#040150007A2FB01D
(1705638753.815000) vcan0 200#050150002A2FB01D
(1705638753.820000) vcan0 200#06015000912FB01D
(1705638753.825000) vcan0 200#06015000C72FB01D
(1705638753.827014) vcan0 75D#31
(1705638753.830000) vcan0 200#07015000F12EB01D
(1705638753.835000) vcan0 200#07015000982FB01D
(1705638753.839381) vcan0 510#5DBD
(1705638753.840000) vcan0 200#080150007B2FB01D
(1705638753.845000) vcan0 200#08015000012FB01D
(1705638753.850000) vcan0 200#09015000CA2FB01D
(1705638753.853781) vcan0 3B1#49A663C1
(1705638753.855000) vcan0 200#09015000D82FB01D
(1705638753.860000) vcan0 200#0A015000302FB01D
(1705638753.865000) vcan0 200#0A015000982FB01D
(1705638753.866689) vcan0 450#92F5A09E7D8050E6
(1705638753.870000) vcan0 200#0B015000262FB01D
(1705638753.875000) vcan0 200#0B015000CE2FB01D
(1705638753.875423) vcan0 139#6567
(1705638753.880000) vcan0 200#0C015000C52FB01D
(1705638753.885000) vcan0 200#0C015000682FB01D
(1705638753.888070) vcan0 15D#49522A0AE884
(1705638753.890000) vcan0 200#0D015000122FB01D
(1705638753.890242) vcan0 053#7A98BB097625BD09
(1705638753.895000) vcan0 200#0D0150006D2FB01D
(1705638753.900000) vcan0 200#0E015000512FB01D
(1705638753.905000) vcan0 200#0E015000C82FB01D
(1705638753.909060) vcan0 014#8490
(1705638753.910000) vcan0 200#0F0150007C2FB01D
(1705638753.913012) vcan0 410#B2B4FD7B35BB
(1705638753.915000) vcan0 200#0F015000C12FB01D
(1705638753.917166) vcan0 0A7#F01A1938E175
(1705638753.920000) vcan0 200#10015000A72FB01D
(1705638753.921000) vcan0 004#ACAE122A9A1D
(1705638753.925000) vcan0 200#10015000B22FB01D
(1705638753.926415) vcan0 290#A79B08
(1705638753.930000) vcan0 200#11015000902FB01D
(1705638753.935000) vcan0 200#110150003B2FB01D
(1705638753.939911) vcan0 769#9E57E25403D09E8C
(1705638753.940000) vcan0 200#12015000422FB01D
(1705638753.945000) vcan0 200#13015000CA2FB01D
(1705638753.950000) vcan0 200#13015000022FB01D
(1705638753.955000) vcan0 200#14015000AB2FB01D
(1705638753.957035) vcan0 2A5#A014F60357089439
(1705638753.960000) vcan0 200#14015000812FB01D
(1705638753.960195) vcan0 593#92E6E8C2AA
(1705638753.965000) vcan0 200#150150007D2FB01D
(1705638753.966452) vcan0 434#31E38B44663A2AAD
(1705638753.970000) vcan0 200#15015000432FB01D
(1705638753.975000) vcan0 200#160150008A2FB01D
(1705638753.980000) vcan0 200#16015000252FB01D
(1705638753.983992) vcan0 6C9#CBC36E63
(1705638753.985000) vcan0 200#170150009B2FB01D
(1705638753.987757) vcan0 515#7879
(1705638753.990000) vcan0 200#17015000CA2FB01D
(1705638753.995000) vcan0 200#18015000A92FB01D
(1705638753.999009) vcan0 282#6FCAAD
(1705638754.000000) vcan0 200#18015000442FB01D
(1705638754.002100) vcan0 130#F44D4060
(1705638754.005000) vcan0 200#19015000582FB01D
(1705638754.010000) vcan0 200#19015000662FB01D
(1705638754.013032) vcan0 0E4#B9B39934
(1705638754.015000) vcan0 200#1A015000042FB01D
(1705638754.019802) vcan0 198#47D16D32B8A9
(1705638754.020000) vcan0 200#1A015000A02FB01D
(1705638754.025000) vcan0 200#1B015000512FB01D
(1705638754.030000) vcan0 200#1B015000182FB01D
(1705638754.035000) vcan0 200#1C0150009A2FB01D
(1705638754.038218) vcan0 161#7F059AD3
(1705638754.040000) vcan0 200#1C0150008F2FB01D
(1705638754.040635) vcan0 19A#DE5AD1B25DFDFF
(1705638754.045000) vcan0 200#1D0150007D2FB01D
(1705638754.046636) vcan0 34D#19
(1705638754.050000) vcan0 200#1D0150001B2FB01D
(1705638754.055000) vcan0 200#1E015000162FB01D
(1705638754.056006) vcan0 3F7#B61DA273AECAD3
(1705638754.060000) vcan0 200#1E015000FF2EB01D
(1705638754.060347) vcan0 382#5625471F88AFA0
(1705638754.065000) vcan0 200#1F015000992FB01D
(1705638754.070000) vcan0 200#20015000922FB01D
(1705638754.075000) vcan0 200#20015000C72FB01D
(1705638754.076881) vcan0 19B#E582C1B1
(1705638754.080000) vcan0 200#21015000AB2FB01D
(1705638754.080267) vcan0 40D#0533909655C94C
(1705638754.085000) vcan0 200#210150004A2FB01D
(1705638754.088029) vcan0 287#2745E101CBC3CFAE
(1705638754.090000) vcan0 200#22015000D52FB01D
(1705638754.094756) vcan0 120#00EC6C6F09
(1705638754.095000) vcan0 200#220150004E2FB01D
(1705638754.100000) vcan0 200#23015000CC2FB01D
(1705638754.105000) vcan0 200#23015000C92FB01D
(1705638754.110000) vcan0 200#24015000972FB01D
(1705638754.114463) vcan0 403#174E388172
(1705638754.115000) vcan0 200#24015000D52FB01D
(1705638754.116686) vcan0 70C#4B
(1705638754.120000) vcan0 200#25015000B32FB01D
(1705638754.121731) vcan0 14C#0A7F8B3B76CC
(1705638754.125000) vcan0 200#250150003D2FB01D
(1705638754.126462) vcan0 54A#CE
(1705638754.130000) vcan0 200#260150000F2FB01D
(1705638754.134372) vcan0 25A#6961
(1705638754.135000) vcan0 200#26015000E82EB01D
(1705638754.140000) vcan0 200#270150004B2FB01D
(1705638754.144710) vcan0 3AA#8B87A31C0670
(1705638754.145000) vcan0 200#270150001C2FB01D
(1705638754.146894) vcan0 35A#8A4167B539
(1705638754.150000) vcan0 200#28015000B52FB01D
(1705638754.151288) vcan0 704#EDE1AFF1FD297D29
(1705638754.155000) vcan0 200#28015000B02FB01D
(1705638754.160000) vcan0 200#29015000B72FB01D
(1705638754.160786) vcan0 25F#1B59
(1705638754.165000) vcan0 200#29015000BC2FB01D
(1705638754.169559) vcan0 651#1208AA
(1705638754.170000) vcan0 200#2A015000E42EB01D
(1705638754.175000) vcan0 200#2A015000612FB01D
(1705638754.179305) vcan0 480#E47B
(1705638754.180000) vcan0 200#2B015000892FB01D
(1705638754.183530) vcan0 386#42E86ABDFEBD09
(1705638754.185000) vcan0 200#2B015000C12FB01D
(1705638754.186453) vcan0 5AB#E26C
(1705638754.190000) vcan0 200#2C0150002E2FB01D
(1705638754.194052) vcan0 0DC#CA
(1705638754.195000) vcan0 200#2D0150000B2FB01D
(1705638754.199935) vcan0 096#D03F1076B57222
(1705638754.200000) vcan0 200#2D0150008E2FB01D
(1705638754.202111) vcan0 2B4#87D475317299D4
(1705638754.205000) vcan0 200#2E015000E92EB01D
(1705638754.210000) vcan0 200#2E015000322FB01D
(1705638754.215000) vcan0 200#2F015000722FB01D
(1705638754.220000) vcan0 200#2F0150000A2FB01D
(1705638754.221968) vcan0 619#D50594
(1705638754.225000) vcan0 200#300150000B2FB01D
(1705638754.230000) vcan0 200#300150007A2FB01D
(1705638754.234838) vcan0 38F#4CFAB46195F9
(1705638754.235000) vcan0 200#31015000B12FB01D
(1705638754.236224) vcan0 534#8E1299
(1705638754.240000) vcan0 200#31015000042FB01D
(1705638754.242269) vcan0 300#3242D0F018577E
(1705638754.245000) vcan0 200#32015000482FB01D
(1705638754.250000) vcan0 200#32015000F92EB01D
(1705638754.255000) vcan0 200#33015000C52FB01D
(1705638754.260000) vcan0 200#330150007F2FB01D
(1705638754.262786) vcan0 5C5#31
(1705638754.265000) vcan0 200#34015000642FB01D
(1705638754.267676) vcan0 25F#EF
(1705638754.270000) vcan0 200#34015000C62FB01D
(1705638754.275000) vcan0 200#35015000A02FB01D
(1705638754.277840) vcan0 036#ED35A2
(1705638754.280000) vcan0 200#35015000462FB01D
(1705638754.282709) vcan0 472#22A9A1
(1705638754.285000) vcan0 200#36015000F42EB01D
(1705638754.288301) vcan0 740#7150A4
(1705638754.290000) vcan0 200#36015000E52EB01D
(1705638754.291084) vcan0 411#4253803B5B8285
(1705638754.295000) vcan0 200#37015000102FB01D
(1705638754.298846) vcan0 5E0#7C1BD43EA70219
(1705638754.300000) vcan0 200#37015000442FB01D
(1705638754.301526) vcan0 0EA#468B2B
(1705638754.305000) vcan0 200#38015000E42EB01D
(1705638754.310000) vcan0 200#38015000872FB01D
(1705638754.312632) vcan0 1F9#C6A64CF0A63D9500
(1705638754.315000) vcan0 200#39015000A42FB01D
(1705638754.319351) vcan0 4AE#F1FCD83946
(1705638754.320000) vcan0 200#3A0150009A2FB01D
(1705638754.325000) vcan0 200#3A015000442FB01D
(1705638754.328500) vcan0 103#9F28BFC9F0
(1705638754.330000) vcan0 200#3B015000832FB01D
(1705638754.331777) vcan0 2BA#FA48
(1705638754.335000) vcan0 200#3B015000C42FB01D
(1705638754.340000) vcan0 200#3C015000EF2EB01D
(1705638754.343635) vcan0 111#DF
(1705638754.345000) vcan0 200#3C015000A92FB01D
(1705638754.350000) vcan0 200#3D015000122FB01D
(1705638754.350997) vcan0 5EF#052A4D452A
(1705638754.355000) vcan0 200#3D015000A52FB01D
(1705638754.360000) vcan0 200#3E015000EA2EB01D
(1705638754.362143) vcan0 465#ACEF1C8D450C
(1705638754.365000) vcan0 200#3E015000122FB01D
(1705638754.366023) vcan0 7C3#52900C89
(1705638754.370000) vcan0 200#3F0150003B2FB01D
(1705638754.374767) vcan0 452#41508AFE
(1705638754.375000) vcan0 200#3F015000952FB01D
(1705638754.380000) vcan0 200#400150008F2FB01D
(1705638754.385000) vcan0 200#40015000322FB01D
(1705638754.390000) vcan0 200#410150001B2FB01D
(1705638754.394362) vcan0 533#A9
(1705638754.395000) vcan0 200#41015000792FB01D
(1705638754.400000) vcan0 200#42015000072FB01D
(1705638754.403186) vcan0 46A#85
(1705638754.405000) vcan0 200#42015000BF2FB01D
(1705638754.410000) vcan0 200#43015000542FB01D
(1705638754.415000) vcan0 200#43015000CE2FB01D
(1705638754.415865) vcan0 2F0#5509D8CA
(1705638754.420000) vcan0 200#44015000502FB01D
(1705638754.423217) vcan0 57C#CF9BD2E06695
(1705638754.425000) vcan0 200#44015000F02EB01D
(1705638754.429982) vcan0 1BA#020E0903A1
(1705638754.430000) vcan0 200#450150000D2FB01D
(1705638754.432211) vcan0 086#966623
(1705638754.435000) vcan0 200#45015000082FB01D
(1705638754.436119) vcan0 44F#E83DC1D2A8
(1705638754.440000) vcan0 200#46015000592FB01D
(1705638754.443891) vcan0 301#55EC3E04350A
(1705638754.445000) vcan0 200#47015000AD2FB01D
(1705638754.447894) vcan0 036#38E3CE4C64F8
(1705638754.450000) vcan0 200#47015000612FB01D
(1705638754.451285) vcan0 57D#F4988147
(1705638754.455000) vcan0 200#480150002D2FB01D
(1705638754.460000) vcan0 200#48015000292FB01D
(1705638754.463935) vcan0 10C#21
(1705638754.465000) vcan0 200#49015000F62EB01D
(1705638754.469101) vcan0 649#BD79AD2696
(1705638754.470000) vcan0 200#490150000F2FB01D
(1705638754.474518) vcan0 71C#8A93E9AA
(1705638754.475000) vcan0 200#4A015000892FB01D
(1705638754.480000) vcan0 200#4A0150001B2FB01D
(1705638754.485000) vcan0 200#4B0150008B2FB01D
(1705638754.489969) vcan0 570#CCEA
(1705638754.490000) vcan0 200#4B0150006D2FB01D
(1705638754.491710) vcan0 12E#BC2864FF48E61D
(1705638754.495000) vcan0 200#4C015000CB2FB01D
(1705638754.500000) vcan0 200#4C015000E92EB01D
(1705638754.505000) vcan0 200#4D015000E92EB01D
(1705638754.506916) vcan0 2D5#0ECC
(1705638754.510000) vcan0 200#4D0150009D2FB01D
(1705638754.510288) vcan0 727#BF37CC
(1705638754.515000) vcan0 200#4E0150008B2FB01D
(1705638754.520000) vcan0 200#4E015000542FB01D
(1705638754.525000) vcan0 200#4F0150007D2FB01D
(1705638754.528423) vcan0 4E7#5E4F24625687
(1705638754.530000) vcan0 200#4F015000FC2EB01D
(1705638754.534373) vcan0 529#F179EF30A0374E
(1705638754.535000) vcan0 200#500150007C2FB01D
(1705638754.536586) vcan0 61E#3DE861E4EAF84B
(1705638754.540000) vcan0 200#50015000952FB01D
(1705638754.542722) vcan0 5FE#59C4F6
(1705638754.545000) vcan0 200#510150000A2FB01D
(1705638754.545776) vcan0 1A3#E6
(1705638754.550000) vcan0 200#510150009A2FB01D
(1705638754.554270) vcan0 44B#26C6C3116DF775
(1705638754.555000) vcan0 200#52015000F32EB01D
(1705638754.555745) vcan0 2B4#C1F2FBB6A92BD925
(1705638754.560000) vcan0 200#52015000842FB01D
(1705638754.564166) vcan0 1DB#DC9E
(1705638754.565000) vcan0 200#53015000492FB01D
(1705638754.565774) vcan0 5B9#EA6179FF9867DADF
(1705638754.570000) vcan0 200#54015000CA2FB01D
(1705638754.570081) vcan0 6C4#703A0B0C
(1705638754.575000) vcan0 200#54015000532FB01D
(1705638754.580000) vcan0 200#55015000B82FB01D
(1705638754.585000) vcan0 200#55015000562FB01D
(1705638754.585284) vcan0 3EA#3A8ADDF584F8AE
(1705638754.590000) vcan0 200#56015000D72FB01D
(1705638754.593324) vcan0 6F8#7DF1CC510BD37983
(1705638754.595000) vcan0 200#560150008D2FB01D
(1705638754.599109) vcan0 56D#3D8893BC4F08
(1705638754.600000) vcan0 200#57015000D92FB01D
(1705638754.603434) vcan0 2A4#AA2401D4F7FA5E
(1705638754.605000) vcan0 200#57015000982FB01D
(1705638754.605864) vcan0 0C5#63C48E5FDFC87E82
(1705638754.610000) vcan0 200#580150003B2FB01D
(1705638754.615000) vcan0 200#58015000BC2FB01D
(1705638754.620000) vcan0 200#59015000362FB01D
(1705638754.624004) vcan0 0BD#BEC342
(1705638754.625000) vcan0 200#590150008F2FB01D
(1705638754.625043) vcan0 5DA#E6CD
(1705638754.630000) vcan0 200#5A015000F22EB01D
(1705638754.634074) vcan0 322#C83561DEEC15C81F
(1705638754.635000) vcan0 200#5A015000B72FB01D
(1705638754.638903) vcan0 3CB#21B008502C06
(1705638754.640000) vcan0 200#5B015000DE2FB01D
(1705638754.641148) vcan0 4C4#AAEE2A7DDDC217
(1705638754.645000) vcan0 200#5B0150009F2FB01D
(1705638754.648069) vcan0 5E7#47545E
(1705638754.650000) vcan0 200#5C015000BE2FB01D
(1705638754.652192) vcan0 657#D2F05F81443712
(1705638754.655000) vcan0 200#5C015000992FB01D
(1705638754.659226) vcan0 5B9#859D
(1705638754.660000) vcan0 200#5D015000B42FB01D
(1705638754.665000) vcan0 200#5D015000812FB01D
(1705638754.670000) vcan0 200#5E0150002D2FB01D
(1705638754.675000) vcan0 200#5E015000592FB01D
(1705638754.675826) vcan0 71A#36463B
(1705638754.680000) vcan0 200#5F015000772FB01D
(1705638754.682511) vcan0 455#AF8AE7A688A745F8
(1705638754.685000) vcan0 200#5F015000FF2EB01D
(1705638754.689169) vcan0 1DE#4BF3E7AC84
(1705638754.690000) vcan0 200#600150003E2FB01D
(1705638754.691508) vcan0 664#311395679C
(1705638754.695000) vcan0 200#610150001D2FB01D
(1705638754.695820) vcan0 244#860D6A
(1705638754.700000) vcan0 200#610150008D2FB01D
(1705638754.705000) vcan0 200#62015000372FB01D
(1705638754.706111) vcan0 03D#1BBDAB9B37CF
(1705638754.710000) vcan0 200#62015000F22EB01D
(1705638754.711805) vcan0 1B3#0600
(1705638754.715000) vcan0 200#63015000DB2FB01D
(1705638754.719907) vcan0 3AC#CA
(1705638754.720000) vcan0 200#63015000312FB01D
(1705638754.725000) vcan0 200#64015000C62FB01D
(1705638754.730000) vcan0 200#64015000682FB01D
(1705638754.731350) vcan0 321#CE23E9399E
(1705638754.735000) vcan0 200#65015000772FB01D
(1705638754.736974) vcan0 3B5#B1C96438E690
(1705638754.740000) vcan0 200#65015000612FB01D
(1705638754.744319) vcan0 218#91618670F5524E
(1705638754.745000) vcan0 200#660150002A2FB01D
(1705638754.747143) vcan0 544#45355545
(1705638754.750000) vcan0 200#66015000762FB01D
(1705638754.755000) vcan0 200#67015000BE2FB01D
(1705638754.758756) vcan0 3FE#89DD4BEF
(1705638754.760000) vcan0 200#67015000322FB01D
(1705638754.765000) vcan0 200#680150002B2FB01D
(1705638754.770000) vcan0 200#68015000452FB01D
(1705638754.775000) vcan0 200#69015000932FB01D
(1705638754.778513) vcan0 1ED#0809
(1705638754.780000) vcan0 200#69015000862FB01D
(1705638754.785000) vcan0 200#6A015000DC2FB01D
(1705638754.786955) vcan0 46E#63DA402663AA5F
(1705638754.790000) vcan0 200#6A015000A22FB01D
(1705638754.795000) vcan0 200#6B015000532FB01D
(1705638754.800000) vcan0 200#6B0150000E2FB01D
(1705638754.805000) vcan0 200#6C0150000B2FB01D
(1705638754.806017) vcan0 700#709FF75C
(1705638754.810000) vcan0 200#6C0150001F2FB01D
(1705638754.810885) vcan0 39D#2CD1975CF6E167
(1705638754.815000) vcan0 200#6D015000FA2EB01D
(1705638754.816779) vcan0 3F6#2D4581218E1C
(1705638754.820000) vcan0 200#6E015000DA2FB01D
(1705638754.823225) vcan0 4D6#04B035078D
(1705638754.825000) vcan0 200#6E0150001E2FB01D
(1705638754.829718) vcan0 755#C4ADDD7446EAB9
(1705638754.830000) vcan0 200#6F015000982FB01D
(1705638754.835000) vcan0 200#6F015000C92FB01D
(1705638754.836603) vcan0 26C#AF99D4F1
(1705638754.840000) vcan0 200#700150005C2FB01D
(1705638754.845000) vcan0 200#700150000D2FB01D
(1705638754.848704) vcan0 512#6C736B3B
(1705638754.850000) vcan0 200#71015000082FB01D
(1705638754.850492) vcan0 777#6D
(1705638754.855000) vcan0 200#71015000F82EB01D
(1705638754.860000) vcan0 200#72015000032FB01D
(1705638754.862855) vcan0 5EC#9863CC9ABF
(1705638754.865000) vcan0 200#72015000B72FB01D
(1705638754.865620) vcan0 43F#919D
(1705638754.870000) vcan0 200#73015000322FB01D
(1705638754.875000) vcan0 200#73015000B62FB01D
(1705638754.879803) vcan0 4C4#6E
(1705638754.880000) vcan0 200#74015000802FB01D
(1705638754.882959) vcan0 531#A7930F
(1705638754.885000) vcan0 200#74015000532FB01D
(1705638754.890000) vcan0 200#75015000DB2FB01D
(1705638754.895000) vcan0 200#750150001F2FB01D
(1705638754.898072) vcan0 15D#6A
(1705638754.900000) vcan0 200#76015000122FB01D
(1705638754.900523) vcan0 336#41E154EBDDE1
(1705638754.905000) vcan0 200#76015000022FB01D
(1705638754.908134) vcan0 1F5#D8EE7381A8
(1705638754.910000) vcan0 200#77015000BA2FB01D
(1705638754.914843) vcan0 693#2395739E
(1705638754.915000) vcan0 200#77015000462FB01D
(1705638754.915236) vcan0 4D2#041941874C9706
(1705638754.920000) vcan0 200#780150005C2FB01D
(1705638754.925000) vcan0 200#78015000512FB01D
(1705638754.930000) vcan0 200#79015000262FB01D
(1705638754.935000) vcan0 200#79015000542FB01D
(1705638754.936787) vcan0 5EB#0BECC7559BC868FA
(1705638754.940000) vcan0 200#7A0150001C2FB01D
(1705638754.945000) vcan0 200#7B015000C52FB01D
(1705638754.945591) vcan0 269#54892A69CED1
(1705638754.950000) vcan0 200#7B0150008E2FB01D
(1705638754.955000) vcan0 200#7C015000102FB01D
(1705638754.958045) vcan0 3C3#CBCCD2361C
(1705638754.960000) vcan0 200#7C015000242FB01D
(1705638754.965000) vcan0 200#7D015000662FB01D
(1705638754.968780) vcan0 545#30826B
(1705638754.970000) vcan0 200#7D0150005E2FB01D
(1705638754.975000) vcan0 200#7E015000942FB01D
(1705638754.977288) vcan0 202#06D38D731383E6B9
(1705638754.980000) vcan0 200#7E015000B92FB01D
(1705638754.985000) vcan0 200#7F015000862FB01D
(1705638754.990000) vcan0 200#7F015000472FB01D
(1705638754.993607) vcan0 1E2#96E1FFAD15D391
(1705638754.995000) vcan0 200#80015000BF2FB01D
(1705638754.996099) vcan0 641#11
(1705638755.000000) vcan0 200#80015000A62FB01D
(1705638755.002646) vcan0 669#EF
(1705638755.005000) vcan0 200#8101B0FF5D2FB01D
(1705638755.008714) vcan0 465#C1462375B1789E
(1705638755.010000) vcan0 200#8101B0FF972FB01D
(1705638755.014505) vcan0 4B5#0A
(1705638755.015000) vcan0 200#8101B0FFA42FB01D
(1705638755.018938) vcan0 2FE#22F2ED9ECE4928
(1705638755.020000) vcan0 200#8201B0FF642FB01D
(1705638755.025000) vcan0 200#8201B0FFD12FB01D
(1705638755.029193) vcan0 52C#A69D10BB4A81
(1705638755.030000) vcan0 200#8201B0FFBB2FB01D
(1705638755.035000) vcan0 200#8201B0FF132FB01D
(1705638755.040000) vcan0 200#8201B0FF2A2FB01D
(1705638755.041175) vcan0 5A4#23C6A80A6F69
(1705638755.045000) vcan0 200#8201B0FFB92FB01D
(1705638755.050000) vcan0 200#8201B0FF0D2FB01D
(1705638755.055000) vcan0 200#8201B0FF5B2FB01D
(1705638755.060000) vcan0 200#8201B0FF652FB01D
(1705638755.061007) vcan0 374#C35EE262811661
(1705638755.065000) vcan0 200#8201B0FFC22FB01D
(1705638755.070000) vcan0 200#8201B0FFDF2FB01D
(1705638755.074221) vcan0 758#53970EF8
(1705638755.075000) vcan0 200#8201B0FFF12EB01D
(1705638755.080000) vcan0 200#8201B0FF452FB01D
(1705638755.085000) vcan0 200#8201B0FF9A2FB01D
(1705638755.089007) vcan0 102#2C61ADC6D4DA
(1705638755.090000) vcan0 200#8201B0FF302FB01D
(1705638755.094183) vcan0 7E2#99D2
(1705638755.095000) vcan0 200#8201B0FFB92FB01D
(1705638755.095117) vcan0 769#7858CC81
(1705638755.100000) vcan0 200#8201B0FFB32FB01D
(1705638755.105000) vcan0 200#8201B0FF8A2FB01D
(1705638755.110000) vcan0 200#8201B0FF322FB01D
(1705638755.112396) vcan0 46C#1D376DBAEDD8
(1705638755.115000) vcan0 200#8201B0FFF02EB01D
(1705638755.120000) vcan0 200#8201B0FF2A2FB01D
(1705638755.120931) vcan0 6EC#69
(1705638755.125000) vcan0 200#8201B0FF042FB01D
(1705638755.127547) vcan0 6E4#CC222B628567A9
(1705638755.130000) vcan0 200#8201B0FF462FB01D
(1705638755.130486) vcan0 5EA#320F4DED
(1705638755.135000) vcan0 200#8201B0FFEF2EB01D
(1705638755.139053) vcan0 421#ADACBF6B678C0D63
(1705638755.140000) vcan0 200#8201B0FFF22EB01D
(1705638755.141436) vcan0 303#D0
(1705638755.145000) vcan0 200#8201B0FFF22EB01D
(1705638755.149221) vcan0 69A#6F6C
(1705638755.150000) vcan0 200#8201B0FFCE2FB01D
(1705638755.155000) vcan0 200#8201B0FFAD2FB01D
(1705638755.155991) vcan0 16E#DE02B75916507938
(1705638755.160000) vcan0 200#8201B0FF912FB01D
(1705638755.165000) vcan0 200#8201B0FFBF2FB01D
(1705638755.168648) vcan0 502#56
(1705638755.170000) vcan0 200#8201B0FF8F2FB01D
(1705638755.170107) vcan0 673#79B0226007DF9F2D
(1705638755.175000) vcan0 200#8201B0FFB02FB01D
(1705638755.177137) vcan0 466#BDE8B9BEFB4E
(1705638755.180000) vcan0 200#8201B0FFCD2FB01D
(1705638755.185000) vcan0 200#8201B0FF292FB01D
(1705638755.190000) vcan0 200#8201B0FFC82FB01D
(1705638755.192622) vcan0 7CF#1F43876B1C6E6697
(1705638755.195000) vcan0 200#8201B0FF762FB01D
(1705638755.200000) vcan0 200#8201B0FF8B2FB01D
(1705638755.204353) vcan0 73C#0BD1
(1705638755.205000) vcan0 200#8201B0FF302FB01D
(1705638755.207693) vcan0 094#F3CCCDE13038
(1705638755.210000) vcan0 200#8201B0FFD42FB01D
(1705638755.215000) vcan0 200#8201B0FF612FB01D
(1705638755.220000) vcan0 200#8201B0FFE22EB01D
(1705638755.225000) vcan0 200#8201B0FF0D2FB01D
(1705638755.225451) vcan0 6E6#DD10E770A920
(1705638755.230000) vcan0 200#8201B0FFDA2FB01D
(1705638755.231095) vcan0 460#7290A60A8BA57C27
(1705638755.235000) vcan0 200#8201B0FF932FB01D
(1705638755.240000) vcan0 200#8201B0FF2B2FB01D
(1705638755.245000) vcan0 200#8201B0FF772FB01D
(1705638755.250000) vcan0 200#8201B0FF652FB01D
(1705638755.255000) vcan0 200#8201B0FF612FB01D
(1705638755.258536) vcan0 0DE#C55935E123
(1705638755.260000) vcan0 200#8201B0FF312FB01D
(1705638755.263718) vcan0 111#52
(1705638755.265000) vcan0 200#8201B0FFFC2EB01D
(1705638755.269324) vcan0 020#144B
(1705638755.270000) vcan0 200#8201B0FF172FB01D
(1705638755.274010) vcan0 4EE#DAB2D3
(1705638755.275000) vcan0 200#8201B0FF4C2FB01D
(1705638755.275383) vcan0 1B6#C3ED28566DE4E1FB
(1705638755.280000) vcan0 200#8201B0FFB22FB01D
(1705638755.282125) vcan0 4CC#08CC58EC55D86D
(1705638755.285000) vcan0 200#8201B0FF812FB01D
(1705638755.290000) vcan0 200#8201B0FF7B2FB01D
(1705638755.295000) vcan0 200#8201B0FF7D2FB01D
(1705638755.295594) vcan0 66E#04093E85C702CE
(1705638755.300000) vcan0 200#8201B0FFB02FB01D
(1705638755.305000) vcan0 200#8201B0FF7E2FB01D
(1705638755.310000) vcan0 200#8201B0FF5B2FB01D
(1705638755.311383) vcan0 142#7EF0A6AD8E9DFDB0
(1705638755.315000) vcan0 200#8201B0FF1B2FB01D
(1705638755.317619) vcan0 598#4E71A23E8C6A7338
(1705638755.320000) vcan0 200#8201B0FF0D2FB01D
(1705638755.321437) vcan0 5E2#221B8717
(1705638755.325000) vcan0 200#8201B0FF8D2FB01D
(1705638755.329723) vcan0 23B#44C074F0364641
(1705638755.330000) vcan0 200#8201B0FFF02EB01D
(1705638755.335000) vcan0 200#8201B0FF7E2FB01D
(1705638755.340000) vcan0 200#8201B0FF1D2FB01D
(1705638755.345000) vcan0 200#8201B0FF862FB01D
(1705638755.345382) vcan0 6CE#B8
(1705638755.350000) vcan0 200#8201B0FF132FB01D
(1705638755.350216) vcan0 517#C362C04C6C
(1705638755.355000) vcan0 200#8201B0FF9C2FB01D
(1705638755.356536) vcan0 027#0769
(1705638755.360000) vcan0 200#8201B0FFA12FB01D
(1705638755.364700) vcan0 79D#A510960B
(1705638755.365000) vcan0 200#8201B0FF4B2FB01D
(1705638755.368994) vcan0 77D#D9FE
(1705638755.370000) vcan0 200#8201B0FFCC2FB01D
(1705638755.371483) vcan0 3EB#0CEEB468455062
(1705638755.375000) vcan0 200#8201B0FF2B2FB01D
(1705638755.380000) vcan0 200#8201B0FF282FB01D
(1705638755.385000) vcan0 200#8201B0FFAD2FB01D
(1705638755.390000) vcan0 200#8201B0FF942FB01D
(1705638755.395000) vcan0 200#8201B0FF082FB01D
(1705638755.400000) vcan0 200#8201B0FFCE2FB01D
(1705638755.401420) vcan0 37C#E26C57F0472C1A
(1705638755.405000) vcan0 200#8201B0FF7B2FB01D
(1705638755.407222) vcan0 6B4#F4B2B8264995
(1705638755.410000) vcan0 200#8201B0FFBE2FB01D
(1705638755.415000) vcan0 200#8201B0FF892FB01D
(1705638755.417847) vcan0 42E#701720E4
(1705638755.420000) vcan0 200#8201B0FF4F2FB01D
(1705638755.423541) vcan0 6FD#D620E4
(1705638755.425000) vcan0 200#8201B0FF962FB01D
(1705638755.426631) vcan0 049#29DBAD
(1705638755.430000) vcan0 200#8201B0FF9D2FB01D
(1705638755.435000) vcan0 200#8201B0FF092FB01D
(1705638755.439610) vcan0 29B#A7
(1705638755.440000) vcan0 200#8201B0FF3B2FB01D
(1705638755.440237) vcan0 658#D557223E0DBD04
(1705638755.445000) vcan0 200#8201B0FF9A2FB01D
(1705638755.450000) vcan0 200#8201B0FFB52FB01D
(1705638755.455000) vcan0 200#8201B0FFA92FB01D
(1705638755.456922) vcan0 009#6703A31F
(1705638755.460000) vcan0 200#8201B0FF802FB01D
(1705638755.465000) vcan0 200#8201B0FF472FB01D
(1705638755.468445) vcan0 117#D44135
(1705638755.470000) vcan0 200#8201B0FF8C2FB01D
(1705638755.475000) vcan0 200#8201B0FFA82FB01D
(1705638755.475460) vcan0 7FD#DC3E
(1705638755.480000) vcan0 200#8201B0FF5B2FB01D
(1705638755.484822) vcan0 0FE#8027DB9C50AC3843
(1705638755.485000) vcan0 200#8201B0FF7A2FB01D
(1705638755.488475) vcan0 192#02AF33A259
(1705638755.490000) vcan0 200#8201B0FFAD2FB01D
(1705638755.495000) vcan0 200#8201B0FFC52FB01D
(1705638755.495387) vcan0 58B#BE
(1705638755.500000) vcan0 200#8201B0FF6F2FB01D
(1705638755.504850) vcan0 39F#0917288B103E
(1705638755.505000) vcan0 200#8201B0FF782FB01D
(1705638755.506192) vcan0 487#8AE7900BC0182BEE
(1705638755.510000) vcan0 200#8201B0FF8B2FB01D
(1705638755.511575) vcan0 01F#B8
(1705638755.515000) vcan0 200#8201B0FF192FB01D
(1705638755.520000) vcan0 200#8201B0FF5A2FB01D
(1705638755.520864) vcan0 259#F35480E8
(1705638755.525000) vcan0 200#8201B0FFF92EB01D
(1705638755.529792) vcan0 3B4#321F06C5
(1705638755.530000) vcan0 200#8201B0FF792FB01D
(1705638755.535000) vcan0 200#8201B0FF812FB01D
(1705638755.540000) vcan0 200#8201B0FFA22FB01D
(1705638755.545000) vcan0 200#8201B0FFCB2FB01D
(1705638755.550000) vcan0 200#8201B0FFE42EB01D
(1705638755.553020) vcan0 06D#AD874327E6
(1705638755.555000) vcan0 200#8201B0FF172FB01D
(1705638755.560000) vcan0 200#8201B0FF762FB01D
(1705638755.561954) vcan0 4BA#4B
(1705638755.565000) vcan0 200#8201B0FFAF2FB01D
(1705638755.569182) vcan0 4F4#9DD3
(1705638755.570000) vcan0 200#8201B0FF1E2FB01D
(1705638755.573802) vcan0 283#E084F2AA
(1705638755.575000) vcan0 200#8201B0FFF52EB01D
(1705638755.579296) vcan0 558#AE6B138D
(1705638755.580000) vcan0 200#8201B0FF552FB01D
(1705638755.581211) vcan0 5DB#D6524430184ADB
(1705638755.585000) vcan0 200#8201B0FF6A2FB01D
(1705638755.589448) vcan0 78F#C2
(1705638755.590000) vcan0 200#8201B0FF732FB01D
(1705638755.592375) vcan0 6EA#EB8F5BCD
(1705638755.595000) vcan0 200#8201B0FFC32FB01D
(1705638755.596876) vcan0 3EC#590BC5494F
(1705638755.600000) vcan0 200#8201B0FFB12FB01D
(1705638755.604170) vcan0 590#E75EED42B5
(1705638755.605000) vcan0 200#8201B0FF3F2FB01D
(1705638755.607053) vcan0 031#ED9EB347FA28E0
(1705638755.610000) vcan0 200#8101B0FF272FB01D
(1705638755.615000) vcan0 200#8101B0FF232FB01D
(1705638755.620000) vcan0 200#8001B0FF9F2FB01D
(1705638755.625000) vcan0 200#8001B0FF892FB01D
(1705638755.630000) vcan0 200#7F01B0FFF52EB01D
(1705638755.635000) vcan0 200#7F01B0FF492FB01D
(1705638755.638464) vcan0 10E#544B5B8730
(1705638755.640000) vcan0 200#7E01B0FFCD2FB01D
(1705638755.642146) vcan0 258#3582AFBBC285
(1705638755.645000) vcan0 200#7E01B0FF212FB01D
(1705638755.648355) vcan0 606#276D9DC05D7F26
(1705638755.650000) vcan0 200#7D01B0FF072FB01D
(1705638755.655000) vcan0 200#7D01B0FFFA2EB01D
(1705638755.660000) vcan0 200#7C01B0FFEE2EB01D
(1705638755.660283) vcan0 4A1#EE384BF2579B8DFC
(1705638755.665000) vcan0 200#7C01B0FFDF2FB01D
(1705638755.670000) vcan0 200#7B01B0FF7E2FB01D
(1705638755.671086) vcan0 429#266A18
(1705638755.675000) vcan0 200#7B01B0FF0F2FB01D
(1705638755.680000) vcan0 200#7A01B0FF382FB01D
(1705638755.683638) vcan0 450#EA39AB
(1705638755.685000) vcan0 200#7A01B0FF232FB01D
(1705638755.690000) vcan0 200#7901B0FF132FB01D
(1705638755.692599) vcan0 463#78
(1705638755.695000) vcan0 200#7901B0FF672FB01D
(1705638755.695080) vcan0 617#F8A16B70F1
(1705638755.700000) vcan0 200#7801B0FF422FB01D
(1705638755.705000) vcan0 200#7701B0FF132FB01D
(1705638755.710000) vcan0 200#7701B0FF662FB01D
(1705638755.710937) vcan0 709#6E
(1705638755.715000) vcan0 200#7601B0FFB62FB01D
(1705638755.720000) vcan0 200#7601B0FFC22FB01D
(1705638755.722096) vcan0 702#9B11BD2A78CF39F6
(1705638755.725000) vcan0 200#7501B0FF1F2FB01D
(1705638755.728350) vcan0 4EB#16A40386
(1705638755.730000) vcan0 200#7501B0FF9E2FB01D
(1705638755.735000) vcan0 200#7401B0FFC62FB01D
(1705638755.738013) vcan0 10A#8B26D91C
(1705638755.740000) vcan0 200#7401B0FF132FB01D
(1705638755.744376) vcan0 024#4064B3C6A2C717D5
(1705638755.745000) vcan0 200#7301B0FFA42FB01D
(1705638755.748266) vcan0 4CB#59DDF3BFE674F6
(1705638755.750000) vcan0 200#7301B0FFE72EB01D
(1705638755.755000) vcan0 200#7201B0FF692FB01D
(1705638755.759734) vcan0 6DA#923015458F549CAF
(1705638755.760000) vcan0 200#7201B0FF8D2FB01D
(1705638755.765000) vcan0 200#7101B0FF922FB01D
(1705638755.770000) vcan0 200#7101B0FF062FB01D
(1705638755.771228) vcan0 262#B06190169DDEAF62
(1705638755.775000) vcan0 200#7001B0FF702FB01D
(1705638755.780000) vcan0 200#7001B0FFDD2FB01D
(1705638755.785000) vcan0 200#6F01B0FF952FB01D
(1705638755.788571) vcan0 60E#090E1F
(1705638755.790000) vcan0 200#6F01B0FF882FB01D
(1705638755.790048) vcan0 0B0#5EEA8513
(1705638755.795000) vcan0 200#6E01B0FF5A2FB01D
(1705638755.797290) vcan0 456#9265634A96
(1705638755.800000) vcan0 200#6E01B0FF2C2FB01D
(1705638755.802471) vcan0 4C3#82FE69EBBA70
(1705638755.805000) vcan0 200#6D01B0FFFA2EB01D
(1705638755.810000) vcan0 200#6D01B0FF3F2FB01D
(1705638755.815000) vcan0 200#6C01B0FF542FB01D
(1705638755.817482) vcan0 38A#C4211BB29E3ED4ED
(1705638755.820000) vcan0 200#6C01B0FF302FB01D
(1705638755.821405) vcan0 0ED#8824A1A2
(1705638755.825000) vcan0 200#6B01B0FF502FB01D
(1705638755.825012) vcan0 4E6#270BEA7EF4D6
(1705638755.830000) vcan0 200#6A01B0FFED2EB01D
(1705638755.835000) vcan0 200#6A01B0FF4E2FB01D
(1705638755.838565) vcan0 156#1960
(1705638755.840000) vcan0 200#6901B0FFE62EB01D
(1705638755.842321) vcan0 6C1#A2567DEFBFE0C7
(1705638755.845000) vcan0 200#6901B0FF792FB01D
(1705638755.849411) vcan0 46F#BDC5
(1705638755.850000) vcan0 200#6801B0FF0D2FB01D
(1705638755.855000) vcan0 200#6801B0FF792FB01D
(1705638755.859726) vcan0 15E#D6BA320FC9
(1705638755.860000) vcan0 200#6701B0FF8B2FB01D
(1705638755.865000) vcan0 200#6701B0FF672FB01D
(1705638755.870000) vcan0 200#6601B0FFB42FB01D
(1705638755.871361) vcan0 506#75F0
(1705638755.875000) vcan0 200#6601B0FFA02FB01D
(1705638755.880000) vcan0 200#6501B0FFC62FB01D
(1705638755.883981) vcan0 6F0#8082B7B532
(1705638755.885000) vcan0 200#6501B0FFD42FB01D
(1705638755.890000) vcan0 200#6401B0FFC62FB01D
(1705638755.895000) vcan0 200#6401B0FF7A2FB01D
(1705638755.899544) vcan0 6D6#E5A1756C
(1705638755.900000) vcan0 200#6301B0FFF42EB01D
(1705638755.900472) vcan0 298#A329539F634F8F
(1705638755.905000) vcan0 200#6301B0FF1A2FB01D
(1705638755.905451) vcan0 296#269ADA0B
(1705638755.910000) vcan0 200#6201B0FFBA2FB01D
(1705638755.915000) vcan0 200#6201B0FF8D2FB01D
(1705638755.915866) vcan0 2E1#49AF9ADB80
(1705638755.920000) vcan0 200#6101B0FFC22FB01D
(1705638755.925000) vcan0 200#6101B0FFB72FB01D
(1705638755.925514) vcan0 1E2#BD3335
(1705638755.930000) vcan0 200#6001B0FF432FB01D
(1705638755.933548) vcan0 3F0#097F84AF5F48E758
(1705638755.935000) vcan0 200#6001B0FF2E2FB01D
(1705638755.940000) vcan0 200#5F01B0FFCF2FB01D
(1705638755.943012) vcan0 60E#85A377
(1705638755.945000) vcan0 200#5F01B0FF7A2FB01D
(1705638755.949370) vcan0 775#0E104EFB5FFE4E7C
(1705638755.950000) vcan0 200#5E01B0FF4D2FB01D
(1705638755.955000) vcan0 200#5D01B0FF2D2FB01D
(1705638755.958498) vcan0 5A2#A09094
(1705638755.960000) vcan0 200#5D01B0FF772FB01D
(1705638755.965000) vcan0 200#5C01B0FF412FB01D
(1705638755.970000) vcan0 200#5C01B0FF3E2FB01D
(1705638755.971448) vcan0 2E6#01AC49BF1A0CEC4E
(1705638755.975000) vcan0 200#5B01B0FF882FB01D
(1705638755.980000) vcan0 200#5B01B0FF572FB01D
(1705638755.985000) vcan0 200#5A01B0FF632FB01D
(1705638755.985628) vcan0 150#ACAE
(1705638755.990000) vcan0 200#5A01B0FF5A2FB01D
(1705638755.990208) vcan0 338#767B5C
(1705638755.995000) vcan0 200#5901B0FF382FB01D
(1705638755.999877) vcan0 079#B8984E
(1705638756.000000) vcan0 200#5901B0FF202FB01D
(1705638756.000559) vcan0 329#E1A9CA53
(1705638756.005000) vcan0 200#5801B0FF2C2FB01D
(1705638756.005801) vcan0 574#C29D5942586056F1
(1705638756.010000) vcan0 200#5801B0FFA12FB01D
(1705638756.015000) vcan0 200#5701B0FFBC2FB01D
(1705638756.019595) vcan0 534#BC04C99D16C816
(1705638756.020000) vcan0 200#5701B0FFB72FB01D
(1705638756.025000) vcan0 200#5601B0FF412FB01D
(1705638756.028794) vcan0 378#DCC54F1045
(1705638756.030000) vcan0 200#5601B0FF192FB01D
(1705638756.032998) vcan0 488#706B6CDA
(1705638756.035000) vcan0 200#5501B0FF202FB01D
(1705638756.040000) vcan0 200#5501B0FFE12EB01D
(1705638756.045000) vcan0 200#5401B0FFE52EB01D
(1705638756.045483) vcan0 177#89B8
(1705638756.050000) vcan0 200#5401B0FFB62FB01D
(1705638756.052793) vcan0 743#9FDC7316479D13
(1705638756.055000) vcan0 200#5301B0FF0B2FB01D
(1705638756.058925) vcan0 0AD#64BAF7AA1D
(1705638756.060000) vcan0 200#5301B0FF2B2FB01D
(1705638756.060203) vcan0 000#64B71862DBB320
(1705638756.065000) vcan0 200#5201B0FF042FB01D
(1705638756.067889) vcan0 015#9F0541C0
(1705638756.070000) vcan0 200#5201B0FF742FB01D
(1705638756.074636) vcan0 571#6062F6F788DF
(1705638756.075000) vcan0 200#5101B0FF522FB01D
(1705638756.080000) vcan0 200#5001B0FF2F2FB01D
(1705638756.082328) vcan0 2D0#B595BDEC
(1705638756.085000) vcan0 200#5001B0FFD42FB01D
(1705638756.090000) vcan0 200#4F01B0FFBF2FB01D
(1705638756.095000) vcan0 200#4F01B0FFB62FB01D
(1705638756.100000) vcan0 200#4E01B0FFAF2FB01D
(1705638756.104822) vcan0 373#0636B86F
(1705638756.105000) vcan0 200#4E01B0FF132FB01D
(1705638756.107199) vcan0 7E6#2D63035C8E
(1705638756.110000) vcan0 200#4D01B0FF902FB01D
(1705638756.115000) vcan0 200#4D01B0FFA42FB01D
(1705638756.117370) vcan0 71B#D7DF9F
(1705638756.120000) vcan0 200#4C01B0FFA52FB01D
(1705638756.125000) vcan0 200#4C01B0FF7E2FB01D
(1705638756.130000) vcan0 200#4B01B0FFCA2FB01D
(1705638756.132310) vcan0 50D#0E3478BA2A
(1705638756.135000) vcan0 200#4B01B0FF682FB01D
(1705638756.140000) vcan0 200#4A01B0FFB92FB01D
(1705638756.145000) vcan0 200#4A01B0FF462FB01D
(1705638756.150000) vcan0 200#4901B0FFAB2FB01D
(1705638756.155000) vcan0 200#4901B0FF192FB01D
(1705638756.157495) vcan0 172#A757
(1705638756.160000) vcan0 200#4801B0FF482FB01D
(1705638756.160210) vcan0 331#BF85E897A491487C
(1705638756.165000) vcan0 200#4801B0FFEC2EB01D
(1705638756.170000) vcan0 200#4701B0FF102FB01D
(1705638756.175000) vcan0 200#4701B0FFA52FB01D
(1705638756.179347) vcan0 11F#E0E0873B7F2117
(1705638756.180000) vcan0 200#4601B0FF002FB01D
(1705638756.182382) vcan0 114#A71B0D30
(1705638756.185000) vcan0 200#4601B0FFDE2FB01D
(1705638756.187062) vcan0 720#DDB94B
(1705638756.190000) vcan0 200#4501B0FF6E2FB01D
(1705638756.194752) vcan0 07D#E446616F4D
(1705638756.195000) vcan0 200#4501B0FFF42EB01D
(1705638756.199956) vcan0 627#3B29D009
(1705638756.200000) vcan0 200#4401B0FFD72FB01D
(1705638756.202106) vcan0 785#71643F50304172
(1705638756.205000) vcan0 200#4301B0FFCD2FB01D
(1705638756.210000) vcan0 200#4301B0FF392FB01D
(1705638756.214144) vcan0 536#C1
(1705638756.215000) vcan0 200#4201B0FFC32FB01D
(1705638756.220000) vcan0 200#4201B0FF192FB01D
(1705638756.223176) vcan0 3B2#2B4ECE
(1705638756.225000) vcan0 200#4101B0FFB32FB01D
(1705638756.226798) vcan0 085#1B
(1705638756.230000) vcan0 200#4101B0FFDD2FB01D
(1705638756.235000) vcan0 200#4001B0FF5B2FB01D
(1705638756.236106) vcan0 191#59
(1705638756.240000) vcan0 200#4001B0FFF02EB01D
(1705638756.244031) vcan0 73F#4EA27F
(1705638756.245000) vcan0 200#3F01B0FFD12FB01D
(1705638756.249933) vcan0 11F#E62B1819C3D9
(1705638756.250000) vcan0 200#3F01B0FF6D2FB01D
(1705638756.254059) vcan0 543#B1953F4F88D15CF7
(1705638756.255000) vcan0 200#3E01B0FF8F2FB01D
(1705638756.259263) vcan0 5EF#BA89
(1705638756.260000) vcan0 200#3E01B0FFDA2FB01D
(1705638756.262561) vcan0 577#0BE473
(1705638756.265000) vcan0 200#3D01B0FF602FB01D
(1705638756.266643) vcan0 22B#E0E3A9905180FA
(1705638756.270000) vcan0 200#3D01B0FFED2EB01D
(1705638756.274583) vcan0 7B6#6D5920F0
(1705638756.275000) vcan0 200#3C01B0FFB92FB01D
(1705638756.279237) vcan0 4AE#7A5D2473
(1705638756.280000) vcan0 200#3C01B0FF262FB01D
(1705638756.282637) vcan0 582#B60327E9984782
(1705638756.285000) vcan0 200#3B01B0FF172FB01D
(1705638756.290000) vcan0 200#3B01B0FFF32EB01D
(1705638756.294459) vcan0 034#8D
(1705638756.295000) vcan0 200#3A01B0FF2E2FB01D
(1705638756.299020) vcan0 6B1#D4C1
(1705638756.300000) vcan0 200#3A01B0FFA62FB01D
(1705638756.305000) vcan0 200#3901B0FF1E2FB01D
(1705638756.306899) vcan0 105#DB2FC612E7
(1705638756.310000) vcan0 200#3901B0FF552FB01D
(1705638756.313448) vcan0 5BA#01
(1705638756.315000) vcan0 200#3801B0FFA22FB01D
(1705638756.320000) vcan0 200#3801B0FFD32FB01D
(1705638756.325000) vcan0 200#3701B0FF2A2FB01D
(1705638756.327644) vcan0 1E2#3C964A76DB
(1705638756.330000) vcan0 200#3601B0FF4C2FB01D
(1705638756.330462) vcan0 34D#CD9C5A3019
(1705638756.335000) vcan0 200#3601B0FFA92FB01D
(1705638756.336697) vcan0 5B4#D7C1A4CD2CB4
(1705638756.340000) vcan0 200#3501B0FF9D2FB01D
(1705638756.345000) vcan0 200#3501B0FFD42FB01D
(1705638756.350000) vcan0 200#3401B0FF4E2FB01D
(1705638756.355000) vcan0 200#3401B0FFDC2FB01D
(1705638756.358968) vcan0 09B#F826B64355FF
(1705638756.360000) vcan0 200#3301B0FFF32EB01D
(1705638756.361894) vcan0 1AE#F7C0C72E3DC54F6A
(1705638756.365000) vcan0 200#3301B0FF412FB01D
(1705638756.370000) vcan0 200#3201B0FF572FB01D
(1705638756.375000) vcan0 200#3201B0FF5B2FB01D
(1705638756.377588) vcan0 6A7#628B4BB9F6
(1705638756.380000) vcan0 200#3101B0FF512FB01D
(1705638756.381288) vcan0 423#D378
(1705638756.385000) vcan0 200#3101B0FFBE2FB01D
(1705638756.386973) vcan0 64E#0984FD41EBDD
(1705638756.390000) vcan0 200#3001B0FF612FB01D
(1705638756.391441) vcan0 398#D4D593A209AB
(1705638756.395000) vcan0 200#3001B0FFB82FB01D
(1705638756.399521) vcan0 7EF#6C8C
(1705638756.400000) vcan0 200#2F01B0FFC22FB01D
(1705638756.403773) vcan0 024#2575
(1705638756.405000) vcan0 200#2F01B0FF472FB01D
(1705638756.407055) vcan0 445#866B8097B50F
(1705638756.410000) vcan0 200#2E01B0FFD92FB01D
(1705638756.415000) vcan0 200#2E01B0FF7F2FB01D
(1705638756.418307) vcan0 65A#FB53914E5855A297
(1705638756.420000) vcan0 200#2D01B0FF382FB01D
(1705638756.425000) vcan0 200#2D01B0FF352FB01D
(1705638756.430000) vcan0 200#2C01B0FF1D2FB01D
(1705638756.430125) vcan0 182#2ECB4FD4005C
(1705638756.435000) vcan0 200#2C01B0FF8F2FB01D
(1705638756.435234) vcan0 244#0173579C176DB7
(1705638756.440000) vcan0 200#2B01B0FF742FB01D
(1705638756.445000) vcan0 200#2B01B0FF892FB01D
(1705638756.448701) vcan0 2EA#E94CCE378E
(1705638756.450000) vcan0 200#2A01B0FF802FB01D
(1705638756.454449) vcan0 04F#AF1B4A9FA7
(1705638756.455000) vcan0 200#2901B0FF222FB01D
(1705638756.460000) vcan0 200#2901B0FF4E2FB01D
(1705638756.461994) vcan0 572#E0582E89281755
(1705638756.465000) vcan0 200#2801B0FF8E2FB01D
(1705638756.468588) vcan0 0B6#B9E1
(1705638756.470000) vcan0 200#2801B0FFD22FB01D
(1705638756.471173) vcan0 677#DA390598
(1705638756.475000) vcan0 200#2701B0FF432FB01D
(1705638756.476314) vcan0 576#12CCEE1CB03AC4DB
(1705638756.480000) vcan0 200#2701B0FFC22FB01D
(1705638756.480129) vcan0 04B#42CAE7
(1705638756.485000) vcan0 200#2601B0FF292FB01D
(1705638756.487486) vcan0 682#7F02F393E63777
(1705638756.490000) vcan0 200#2601B0FFBC2FB01D
(1705638756.495000) vcan0 200#2501B0FF472FB01D
(1705638756.496020) vcan0 0FA#A42BF68673
(1705638756.500000) vcan0 200#2501B0FF852FB01D
(1705638756.504162) vcan0 554#E4
(1705638756.505000) vcan0 200#2401B0FF602FB01D
(1705638756.510000) vcan0 200#2401B0FF0F2FB01D
(1705638756.511404) vcan0 08D#EC40CBCB41EB
(1705638756.515000) vcan0 200#2301B0FF8C2FB01D
(1705638756.515591) vcan0 280#7DED06DD254CD3
(1705638756.520000) vcan0 200#2301B0FF812FB01D
(1705638756.521421) vcan0 5B8#1D4892
(1705638756.525000) vcan0 200#2201B0FFCC2FB01D
(1705638756.529247) vcan0 2D3#E470FA471EC79C
(1705638756.530000) vcan0 200#2201B0FF612FB01D
(1705638756.532344) vcan0 71B#89CE6F
(1705638756.535000) vcan0 200#2101B0FF762FB01D
(1705638756.537233) vcan0 330#258E80F5
(1705638756.540000) vcan0 200#2101B0FF172FB01D
(1705638756.542223) vcan0 303#E7
(1705638756.545000) vcan0 200#2001B0FFF22EB01D
(1705638756.549394) vcan0 1EE#E90424681E6CCC
(1705638756.550000) vcan0 200#2001B0FFFE2EB01D
(1705638756.555000) vcan0 200#1F01B0FFE52EB01D
(1705638756.560000) vcan0 200#1F01B0FF7A2FB01D
(1705638756.563281) vcan0 12E#77DA4112236C33
(1705638756.565000) vcan0 200#1E01B0FFD62FB01D
(1705638756.570000) vcan0 200#1E01B0FFF82EB01D
(1705638756.575000) vcan0 200#1D01B0FF472FB01D
(1705638756.577430) vcan0 32C#D856E132
(1705638756.580000) vcan0 200#1C01B0FF7D2FB01D
(1705638756.583944) vcan0 64E#F3F56521E504
(1705638756.585000) vcan0 200#1C01B0FF662FB01D
(1705638756.586540) vcan0 778#7A84A68C72977B17
(1705638756.590000) vcan0 200#1B01B0FFDB2FB01D
(1705638756.595000) vcan0 200#1B01B0FF0C2FB01D
(1705638756.596964) vcan0 347#D5582F4B68
(1705638756.600000) vcan0 200#1A01B0FFBE2FB01D
(1705638756.604281) vcan0 3DA#84E244CE97C7
(1705638756.605000) vcan0 200#1A01B0FFCF2FB01D
(1705638756.610000) vcan0 200#1901B0FFE62EB01D
(1705638756.615000) vcan0 200#1901B0FFF62EB01D
(1705638756.620000) vcan0 200#1801B0FF4C2FB01D
(1705638756.620651) vcan0 0F8#C0C8A9
(1705638756.625000) vcan0 200#1801B0FFE02EB01D
(1705638756.630000) vcan0 200#1701B0FF742FB01D
(1705638756.635000) vcan0 200#1701B0FF732FB01D
(1705638756.636457) vcan0 19D#F5A1D5060E
(1705638756.640000) vcan0 200#1601B0FFB72FB01D
(1705638756.640957) vcan0 2BB#203D93
(1705638756.645000) vcan0 200#1601B0FFC82FB01D
(1705638756.650000) vcan0 200#1501B0FF532FB01D
(1705638756.654090) vcan0 558#03F2B0FB4C
(1705638756.655000) vcan0 200#1501B0FF122FB01D
(1705638756.659938) vcan0 172#BFAC957F
(1705638756.660000) vcan0 200#1401B0FF152FB01D
(1705638756.660866) vcan0 332#3585
(1705638756.665000) vcan0 200#1401B0FF342FB01D
(1705638756.666107) vcan0 1AA#46AB09507BA1
(1705638756.670000) vcan0 200#1301B0FF112FB01D
(1705638756.673346) vcan0 17D#B1B4FD
(1705638756.675000) vcan0 200#1301B0FFB32FB01D
(1705638756.675686) vcan0 0EB#1A8E5A6A2D
(1705638756.680000) vcan0 200#1201B0FF9C2FB01D
(1705638756.685000) vcan0 200#1201B0FFA02FB01D
(1705638756.689533) vcan0 4DD#A988F918F3604428
(1705638756.690000) vcan0 200#1101B0FFBE2FB01D
(1705638756.690941) vcan0 73C#EDA6D5
(1705638756.695000) vcan0 200#1101B0FF842FB01D
(1705638756.700000) vcan0 200#1001B0FF392FB01D
(1705638756.701376) vcan0 21B#768E9DE65D
(1705638756.705000) vcan0 200#0F01B0FF1C2FB01D
(1705638756.710000) vcan0 200#0F01B0FF942FB01D
(1705638756.715000) vcan0 200#0E01B0FF0E2FB01D
(1705638756.720000) vcan0 200#0E01B0FF912FB01D
(1705638756.723723) vcan0 729#2407ADEB6525D8
(1705638756.725000) vcan0 200#0D01B0FFA52FB01D
(1705638756.726077) vcan0 0BC#5EE2A2
(1705638756.730000) vcan0 200#0D01B0FF082FB01D
(1705638756.735000) vcan0 200#0C01B0FFDC2FB01D
(1705638756.740000) vcan0 200#0C01B0FFCF2FB01D
(1705638756.744514) vcan0 69F#54B801F173
(1705638756.745000) vcan0 200#0B01B0FFCF2FB01D
(1705638756.748214) vcan0 6AE#CDDB
(1705638756.750000) vcan0 200#0B01B0FF942FB01D
(1705638756.755000) vcan0 200#0A01B0FF2F2FB01D
(1705638756.757824) vcan0 1DE#7204
(1705638756.760000) vcan0 200#0A01B0FFB72FB01D
(1705638756.763657) vcan0 73D#26D4A36BA9CF41
(1705638756.765000) vcan0 200#0901B0FFA42FB01D
(1705638756.769527) vcan0 28F#895BBCBD
(1705638756.770000) vcan0 200#0901B0FF672FB01D
(1705638756.772989) vcan0 178#EE
(1705638756.775000) vcan0 200#0801B0FFD12FB01D
(1705638756.777630) vcan0 064#A885
(1705638756.780000) vcan0 200#0801B0FF5A2FB01D
(1705638756.780698) vcan0 244#ED2DF3D6E9
(1705638756.785000) vcan0 200#0701B0FFED2EB01D
(1705638756.790000) vcan0 200#0701B0FF9D2FB01D
(1705638756.795000) vcan0 200#0601B0FF9F2FB01D
(1705638756.800000) vcan0 200#0601B0FFA52FB01D
(1705638756.800205) vcan0 5DB#B8742E51E0A924D9
(1705638756.805000) vcan0 200#0501B0FF642FB01D
(1705638756.810000) vcan0 200#0501B0FF892FB01D
(1705638756.810265) vcan0 243#E8
(1705638756.815000) vcan0 200#0401B0FF982FB01D
(1705638756.816943) vcan0 449#0CC46028C8DE
(1705638756.820000) vcan0 200#0401B0FF352FB01D
(1705638756.820635) vcan0 526#8F38
(1705638756.825000) vcan0 200#0301B0FFBB2FB01D
(1705638756.830000) vcan0 200#0201B0FF1F2FB01D
(1705638756.835000) vcan0 200#0201B0FFBF2FB01D
(1705638756.836212) vcan0 713#89246AB113CDA4
(1705638756.840000) vcan0 200#0101B0FF592FB01D
(1705638756.840004) vcan0 664#41D3C7F257
(1705638756.845000) vcan0 200#0101B0FFE22EB01D
(1705638756.850000) vcan0 200#0001B0FFD32FB01D
(1705638756.855000) vcan0 200#0001B0FF212FB01D
(1705638756.855914) vcan0 39A#3CB793B614886B4C
(1705638756.860000) vcan0 200#FF00B0FFA42FB01D
(1705638756.864439) vcan0 44A#1EB78102
(1705638756.865000) vcan0 200#FF00B0FF392FB01D
(1705638756.866207) vcan0 385#5D98FC5D21
(1705638756.870000) vcan0 200#FE00B0FFC62FB01D
(1705638756.873269) vcan0 64B#5C78D0
(1705638756.875000) vcan0 200#FE00B0FF452FB01D
(1705638756.877755) vcan0 08E#D7D653F0EF0B
(1705638756.880000) vcan0 200#FD00B0FFE52EB01D
(1705638756.885000) vcan0 200#FD00B0FFA32FB01D
(1705638756.890000) vcan0 200#FC00B0FF4F2FB01D
(1705638756.892859) vcan0 023#220094
(1705638756.895000) vcan0 200#FC00B0FF852FB01D
(1705638756.899852) vcan0 09E#C015
(1705638756.900000) vcan0 200#FB00B0FF6C2FB01D
(1705638756.901113) vcan0 650#084525
(1705638756.905000) vcan0 200#FB00B0FF372FB01D
(1705638756.905649) vcan0 191#75808754C843E4
(1705638756.910000) vcan0 200#FA00B0FFF92EB01D
(1705638756.912102) vcan0 510#20F71890
(1705638756.915000) vcan0 200#FA00B0FF802FB01D
(1705638756.916287) vcan0 588#DAA5E2EA
(1705638756.920000) vcan0 200#F900B0FF4A2FB01D
(1705638756.923806) vcan0 4E9#433C4A0A04
(1705638756.925000) vcan0 200#F900B0FFA22FB01D
(1705638756.929956) vcan0 00F#6AD46548417C
(1705638756.930000) vcan0 200#F800B0FF692FB01D
(1705638756.933062) vcan0 196#677292
(1705638756.935000) vcan0 200#F800B0FF182FB01D
(1705638756.939742) vcan0 1A7#492339B4FD8F
(1705638756.940000) vcan0 200#F700B0FFF32EB01D
(1705638756.942754) vcan0 726#DC3932
(1705638756.945000) vcan0 200#F700B0FF3B2FB01D
(1705638756.950000) vcan0 200#F600B0FFA42FB01D
(1705638756.953045) vcan0 273#8FC6855B41719D80
(1705638756.955000) vcan0 200#F500B0FF4B2FB01D
(1705638756.960000) vcan0 200#F500B0FF9D2FB01D
(1705638756.963376) vcan0 1F2#D4BBC71378
(1705638756.965000) vcan0 200#F400B0FFA62FB01D
(1705638756.967034) vcan0 17B#303A1F43
(1705638756.970000) vcan0 200#F400B0FFD22FB01D
(1705638756.975000) vcan0 200#F300B0FF382FB01D
(1705638756.980000) vcan0 200#F300B0FF802FB01D
(1705638756.985000) vcan0 200#F200B0FF4F2FB01D
(1705638756.990000) vcan0 200#F200B0FFA22FB01D
(1705638756.995000) vcan0 200#F100B0FF4E2FB01D
(1705638757.000000) vcan0 200#F100B0FFF32EB01D
(1705638757.000108) vcan0 3C2#3B4E9CB3D14A79C1
(1705638757.005000) vcan0 200#F000B0FFA22FB01D
(1705638757.010000) vcan0 200#F000B0FF742FB01D
(1705638757.010637) vcan0 25D#D3C19D
(1705638757.015000) vcan0 200#EF00B0FF0B2FB01D
(1705638757.017505) vcan0 167#DA
(1705638757.020000) vcan0 200#EF00B0FFB92FB01D
(1705638757.020060) vcan0 498#1C3B65
(1705638757.025000) vcan0 200#EE00B0FF042FB01D
(1705638757.030000) vcan0 200#EE00B0FFC92FB01D
(1705638757.032129) vcan0 76D#D39C9AFDC4B7CF
(1705638757.035000) vcan0 200#ED00B0FF042FB01D
(1705638757.035104) vcan0 619#64C8E0
(1705638757.040000) vcan0 200#ED00B0FFDD2FB01D
(1705638757.045000) vcan0 200#EC00B0FF722FB01D
(1705638757.047392) vcan0 45C#ACA5B35B66
(1705638757.050000) vcan0 200#EC00B0FF0D2FB01D
(1705638757.050472) vcan0 0A9#05B52429CB
(1705638757.055000) vcan0 200#EB00B0FFC92FB01D
(1705638757.058364) vcan0 1E8#54ABDBBA0A4BBC
(1705638757.060000) vcan0 200#EB00B0FF872FB01D
(1705638757.065000) vcan0 200#EA00B0FF962FB01D
(1705638757.065304) vcan0 2C3#F10E
(1705638757.070000) vcan0 200#EA00B0FFDE2FB01D
(1705638757.075000) vcan0 200#E900B0FF602FB01D
(1705638757.077319) vcan0 148#5F
(1705638757.080000) vcan0 200#E800B0FFE52EB01D
(1705638757.084970) vcan0 26D#4B
(1705638757.085000) vcan0 200#E800B0FFB12FB01D
(1705638757.086072) vcan0 233#A1A3
(1705638757.090000) vcan0 200#E700B0FFA42FB01D
(1705638757.091172) vcan0 624#21655AD2BB02
(1705638757.095000) vcan0 200#E700B0FF492FB01D
(1705638757.098167) vcan0 6CA#CF5A6EF1BE
(1705638757.100000) vcan0 200#E600B0FF6B2FB01D
(1705638757.103377) vcan0 6D1#587F86CD1B7BA2
(1705638757.105000) vcan0 200#E600B0FF872FB01D
(1705638757.109012) vcan0 6E5#D01D3F67F2B3
(1705638757.110000) vcan0 200#E500B0FF5E2FB01D
(1705638757.111883) vcan0 24B#36D742C3449140
(1705638757.115000) vcan0 200#E500B0FF972FB01D
(1705638757.117774) vcan0 35D#018A
(1705638757.120000) vcan0 200#E400B0FFEB2EB01D
(1705638757.123008) vcan0 5FF#BCC0C3
(1705638757.125000) vcan0 200#E400B0FF982FB01D
(1705638757.128470) vcan0 24E#42568B8D
(1705638757.130000) vcan0 200#E300B0FFC62FB01D
(1705638757.135000) vcan0 200#E300B0FF472FB01D
(1705638757.135614) vcan0 0FF#70C61F57
(1705638757.140000) vcan0 200#E200B0FFA82FB01D
(1705638757.145000) vcan0 200#E200B0FF7E2FB01D
(1705638757.150000) vcan0 200#E100B0FF232FB01D
(1705638757.150730) vcan0 275#B0645EE4F7
(1705638757.155000) vcan0 200#E100B0FF5C2FB01D
(1705638757.160000) vcan0 200#E000B0FF9A2FB01D
(1705638757.165000) vcan0 200#E000B0FF4A2FB01D
(1705638757.167200) vcan0 1E9#651A8D497611
(1705638757.170000) vcan0 200#DF00B0FF152FB01D
(1705638757.175000) vcan0 200#DF00B0FF132FB01D
(1705638757.178982) vcan0 365#24
(1705638757.180000) vcan0 200#DE00B0FFF42EB01D
(1705638757.185000) vcan0 200#DE00B0FFE62EB01D
(1705638757.186696) vcan0 7A5#79C0
(1705638757.190000) vcan0 200#DD00B0FF862FB01D
(1705638757.190954) vcan0 2AF#D3
(1705638757.195000) vcan0 200#DD00B0FFA62FB01D
(1705638757.199986) vcan0 1BB#EB05FCB2C02FEEDD
(1705638757.200000) vcan0 200#DC00B0FF1B2FB01D
(1705638757.205000) vcan0 200#DB00B0FFDE2FB01D
(1705638757.206306) vcan0 767#FEEC43EE7D115C
(1705638757.210000) vcan0 200#DB00B0FF272FB01D
(1705638757.215000) vcan0 200#DA00B0FFAF2FB01D
(1705638757.220000) vcan0 200#DA00B0FFA02FB01D
(1705638757.221727) vcan0 43C#8D
(1705638757.225000) vcan0 200#D900B0FFB22FB01D
(1705638757.229610) vcan0 21E#C4
(1705638757.230000) vcan0 200#D900B0FFF52EB01D
(1705638757.235000) vcan0 200#D800B0FF032FB01D
(1705638757.240000) vcan0 200#D800B0FF7C2FB01D
(1705638757.244403) vcan0 782#E41DF320ECD9432D
(1705638757.245000) vcan0 200#D700B0FF5C2FB01D
(1705638757.247934) vcan0 6E9#CF
(1705638757.250000) vcan0 200#D700B0FFCE2FB01D
(1705638757.251914) vcan0 0D1#90
(1705638757.255000) vcan0 200#D600B0FF692FB01D
(1705638757.256119) vcan0 51C#AD21FC6F7FAD8F1C
(1705638757.260000) vcan0 200#D600B0FFAC2FB01D
(1705638757.265000) vcan0 200#D500B0FFA42FB01D
(1705638757.268173) vcan0 44B#A99D9A
(1705638757.270000) vcan0 200#D500B0FF762FB01D
(1705638757.274472) vcan0 3B6#0F49
(1705638757.275000) vcan0 200#D400B0FFEA2EB01D
(1705638757.277040) vcan0 0A3#96
(1705638757.280000) vcan0 200#D400B0FF7B2FB01D
(1705638757.281743) vcan0 76C#6DA68974
(1705638757.285000) vcan0 200#D300B0FF2D2FB01D
(1705638757.288208) vcan0 500#82B77544
(1705638757.290000) vcan0 200#D300B0FFEA2EB01D
(1705638757.295000) vcan0 200#D200B0FF592FB01D
(1705638757.300000) vcan0 200#D200B0FFD22FB01D
(1705638757.305000) vcan0 200#D100B0FF262FB01D
(1705638757.309105) vcan0 62F#76A7D0
(1705638757.310000) vcan0 200#D100B0FF622FB01D
(1705638757.310382) vcan0 4BE#45CD94291B
(1705638757.315000) vcan0 200#D000B0FFAB2FB01D
(1705638757.316357) vcan0 78A#58156B486F
(1705638757.320000) vcan0 200#D000B0FF542FB01D
(1705638757.323735) vcan0 230#F3054B
(1705638757.325000) vcan0 200#CF00B0FF182FB01D
(1705638757.330000) vcan0 200#CE00B0FF162FB01D
(1705638757.334431) vcan0 1D9#3B51779703
(1705638757.335000) vcan0 200#CE00B0FF162FB01D
(1705638757.335821) vcan0 5F4#F8F7C385B8A9
(1705638757.340000) vcan0 200#CD00B0FFB42FB01D
(1705638757.345000) vcan0 200#CD00B0FF0E2FB01D
(1705638757.348237) vcan0 4E3#C1
(1705638757.350000) vcan0 200#CC00B0FFE32EB01D
(1705638757.355000) vcan0 200#CC00B0FF622FB01D
(1705638757.360000) vcan0 200#CB00B0FF9F2FB01D
(1705638757.363604) vcan0 269#72847ED330EB
(1705638757.365000) vcan0 200#CB00B0FF192FB01D
(1705638757.370000) vcan0 200#CA00B0FFA92FB01D
(1705638757.375000) vcan0 200#CA00B0FF7A2FB01D
(1705638757.380000) vcan0 200#C900B0FFC52FB01D
(1705638757.380759) vcan0 174#A349EC
(1705638757.385000) vcan0 200#C900B0FFB42FB01D
(1705638757.385839) vcan0 1FA#5D131712CB
(1705638757.390000) vcan0 200#C800B0FF8A2FB01D
(1705638757.393356) vcan0 223#7024C46C78754056
(1705638757.395000) vcan0 200#C800B0FF722FB01D
(1705638757.400000) vcan0 200#C700B0FF542FB01D
(1705638757.400695) vcan0 5E7#5E7294AAB75222
(1705638757.405000) vcan0 200#C700B0FF182FB01D
(1705638757.405668) vcan0 5CA#EABB9EA47BDB
(1705638757.410000) vcan0 200#C600B0FFCC2FB01D
(1705638757.410690) vcan0 5A6#75
(1705638757.415000) vcan0 200#C600B0FFF82EB01D
(1705638757.416635) vcan0 641#D2A43C9D
(1705638757.420000) vcan0 200#C500B0FFC82FB01D
(1705638757.424854) vcan0 5E9#8F3BE53F98
(1705638757.425000) vcan0 200#C500B0FF292FB01D
(1705638757.430000) vcan0 200#C400B0FF382FB01D
(1705638757.430792) vcan0 6C3#270E415792
(1705638757.435000) vcan0 200#C400B0FF022FB01D
(1705638757.437981) vcan0 6C3#5D5598D3AA609F07
(1705638757.440000) vcan0 200#C300B0FF7E2FB01D
(1705638757.442037) vcan0 583#96
(1705638757.445000) vcan0 200#C300B0FF622FB01D
(1705638757.450000) vcan0 200#C200B0FF6A2FB01D
(1705638757.452680) vcan0 5E1#087FB3557D04251D
(1705638757.455000) vcan0 200#C100B0FFF02EB01D
(1705638757.459787) vcan0 241#ACE181635AAA4BE2
(1705638757.460000) vcan0 200#C100B0FFAD2FB01D
(1705638757.465000) vcan0 200#C000B0FF4D2FB01D
(1705638757.466682) vcan0 3DA#2785B8
(1705638757.470000) vcan0 200#C000B0FF622FB01D
(1705638757.475000) vcan0 200#BF00B0FF782FB01D
(1705638757.480000) vcan0 200#BF00B0FF622FB01D
(1705638757.485000) vcan0 200#BE00B0FF4D2FB01D
(1705638757.490000) vcan0 200#BE00B0FFC62FB01D
(1705638757.492014) vcan0 223#E7EAC9A587
(1705638757.495000) vcan0 200#BD00B0FF3F2FB01D
(1705638757.500000) vcan0 200#BD00B0FFBE2FB01D
(1705638757.502498) vcan0 36E#41EB
(1705638757.505000) vcan0 200#BC00B0FFDA2FB01D
(1705638757.510000) vcan0 200#BC00B0FF4E2FB01D
(1705638757.510143) vcan0 2BA#617636
(1705638757.515000) vcan0 200#BB00B0FFB92FB01D
(1705638757.520000) vcan0 200#BB00B0FF3B2FB01D
(1705638757.524794) vcan0 6D5#3CA5CF
(1705638757.525000) vcan0 200#BA00B0FFD82FB01D
(1705638757.530000) vcan0 200#BA00B0FF242FB01D
(1705638757.535000) vcan0 200#B900B0FF772FB01D
(1705638757.539312) vcan0 1E6#D1
(1705638757.540000) vcan0 200#B900B0FF8A2FB01D
(1705638757.543761) vcan0 276#70
(1705638757.545000) vcan0 200#B800B0FF9A2FB01D
(1705638757.547705) vcan0 402#3D69C98A23BE
(1705638757.550000) vcan0 200#B800B0FF782FB01D
(1705638757.553260) vcan0 365#FA673FFA63
(1705638757.555000) vcan0 200#B700B0FF4B2FB01D
(1705638757.560000) vcan0 200#B700B0FF672FB01D
(1705638757.565000) vcan0 200#B600B0FFD42FB01D
(1705638757.570000) vcan0 200#B600B0FF902FB01D
(1705638757.572430) vcan0 452#A946AF8210
(1705638757.575000) vcan0 200#B500B0FF1B2FB01D
(1705638757.578995) vcan0 353#FBDB9A88A13A
(1705638757.580000) vcan0 200#B400B0FF4A2FB01D
(1705638757.585000) vcan0 200#B400B0FFA02FB01D
(1705638757.588771) vcan0 797#338C3593
(1705638757.590000) vcan0 200#B300B0FFC12FB01D
(1705638757.594182) vcan0 3A4#B2B8B80E
(1705638757.595000) vcan0 200#B300B0FF602FB01D
(1705638757.600000) vcan0 200#B200B0FFEB2EB01D
(1705638757.605000) vcan0 200#B200B0FF4B2FB01D
(1705638757.610000) vcan0 200#B100B0FF222FB01D
(1705638757.615000) vcan0 200#B100B0FF352FB01D
(1705638757.620000) vcan0 200#B000B0FF0F2FB01D
(1705638757.625000) vcan0 200#B000B0FF092FB01D
(1705638757.629428) vcan0 230#D06A65F080308549
(1705638757.630000) vcan0 200#AF00B0FFC42FB01D
(1705638757.634372) vcan0 53D#DCBA82F3
(1705638757.635000) vcan0 200#AF00B0FF282FB01D
(1705638757.636748) vcan0 793#3F5AC76456A459A7
(1705638757.640000) vcan0 200#AE00B0FF922FB01D
(1705638757.640779) vcan0 5A0#25527253
(1705638757.645000) vcan0 200#AE00B0FF822FB01D
(1705638757.650000) vcan0 200#AD00B0FFE82EB01D
(1705638757.652860) vcan0 2D3#61141411
(1705638757.655000) vcan0 200#AD00B0FFB72FB01D
(1705638757.658849) vcan0 1A7#2B
(1705638757.660000) vcan0 200#AC00B0FFBC2FB01D
(1705638757.665000) vcan0 200#AC00B0FF172FB01D
(1705638757.667047) vcan0 7E5#06465A8CE167AC
(1705638757.670000) vcan0 200#AB00B0FF7B2FB01D
(1705638757.672776) vcan0 28B#5AA3C0
(1705638757.675000) vcan0 200#AB00B0FFB22FB01D
(1705638757.675263) vcan0 6B3#FFCBF373EC7D
(1705638757.680000) vcan0 200#AA00B0FF582FB01D
(1705638757.681641) vcan0 116#ABA7
(1705638757.685000) vcan0 200#AA00B0FFB92FB01D
(1705638757.685467) vcan0 736#6E
(1705638757.690000) vcan0 200#A900B0FF922FB01D
(1705638757.695000) vcan0 200#A900B0FFB32FB01D
(1705638757.700000) vcan0 200#A800B0FF862FB01D
(1705638757.700116) vcan0 0C0#6C29
(1705638757.705000) vcan0 200#A700B0FF7D2FB01D
(1705638757.710000) vcan0 200#A700B0FF712FB01D
(1705638757.715000) vcan0 200#A600B0FFEC2EB01D
(1705638757.718053) vcan0 3D3#295DDE804055CE
(1705638757.720000) vcan0 200#A600B0FF8A2FB01D
(1705638757.721863) vcan0 40C#84E32C3BD2
(1705638757.725000) vcan0 200#A500B0FF912FB01D
(1705638757.726520) vcan0 50A#3107FA
(1705638757.730000) vcan0 200#A500B0FF522FB01D
(1705638757.733798) vcan0 5FC#DE77C2494222
(1705638757.735000) vcan0 200#A400B0FF502FB01D
(1705638757.735972) vcan0 7B7#158D
(1705638757.740000) vcan0 200#A400B0FF362FB01D
(1705638757.741892) vcan0 32C#5FBD29F12552C4
(1705638757.745000) vcan0 200#A300B0FF662FB01D
(1705638757.749269) vcan0 08A#0A
(1705638757.750000) vcan0 200#A300B0FF452FB01D
(1705638757.752182) vcan0 5FF#0821
(1705638757.755000) vcan0 200#A200B0FF672FB01D
(1705638757.757433) vcan0 1A7#23D950
(1705638757.760000) vcan0 200#A200B0FFB42FB01D
(1705638757.761464) vcan0 5D2#C7B34EB0FFC10EBA
(1705638757.765000) vcan0 200#A100B0FF612FB01D
(1705638757.768612) vcan0 6B8#09346E3769CBA6
(1705638757.770000) vcan0 200#A100B0FF102FB01D
(1705638757.775000) vcan0 200#A000B0FF4F2FB01D
(1705638757.778158) vcan0 3C6#5BF8C8
(1705638757.780000) vcan0 200#A000B0FF3D2FB01D
(1705638757.785000) vcan0 200#9F00B0FFA32FB01D
(1705638757.786592) vcan0 7C6#69CA0353884EF0
(1705638757.790000) vcan0 200#9F00B0FF152FB01D
(1705638757.795000) vcan0 200#9E00B0FF262FB01D
(1705638757.797148) vcan0 793#2A5D25
(1705638757.800000) vcan0 200#9E00B0FFA92FB01D
(1705638757.801024) vcan0 759#72327EF679EB
(1705638757.805000) vcan0 200#9D00B0FFC32FB01D
(1705638757.809930) vcan0 4B6#01A02ADFEA33
(1705638757.810000) vcan0 200#9D00B0FF982FB01D
(1705638757.812749) vcan0 58B#36DFD81A07
(1705638757.815000) vcan0 200#9C00B0FFBE2FB01D
(1705638757.820000) vcan0 200#9C00B0FFAC2FB01D
(1705638757.822499) vcan0 268#68
(1705638757.825000) vcan0 200#9B00B0FF562FB01D
(1705638757.830000) vcan0 200#9A00B0FFA02FB01D
(1705638757.833212) vcan0 0B6#52CE39272C88D3AA
(1705638757.835000) vcan0 200#9A00B0FFFD2EB01D
(1705638757.840000) vcan0 200#9900B0FFDB2FB01D
(1705638757.845000) vcan0 200#9900B0FF8C2FB01D
(1705638757.850000) vcan0 200#9800B0FF9E2FB01D
(1705638757.854943) vcan0 3E7#BE64E41D9368BFAD
(1705638757.855000) vcan0 200#9800B0FF5D2FB01D
(1705638757.855852) vcan0 0A8#6BE97815C908
(1705638757.860000) vcan0 200#9700B0FF3B2FB01D
(1705638757.860777) vcan0 0A5#9DE9
(1705638757.865000) vcan0 200#9700B0FF4E2FB01D
(1705638757.870000) vcan0 200#9600B0FF992FB01D
(1705638757.870344) vcan0 618#FC6B
(1705638757.875000) vcan0 200#9600B0FFA62FB01D
(1705638757.880000) vcan0 200#9500B0FFC12FB01D
(1705638757.885000) vcan0 200#9500B0FF812FB01D
(1705638757.890000) vcan0 200#9400B0FF6B2FB01D
(1705638757.892555) vcan0 4AC#3BF06053E09472E9
(1705638757.895000) vcan0 200#9400B0FF3D2FB01D
(1705638757.897371) vcan0 3B5#B09EB8D8A9352E03
(1705638757.900000) vcan0 200#9300B0FFA02FB01D
(1705638757.902982) vcan0 702#D5
(1705638757.905000) vcan0 200#9300B0FF0F2FB01D
(1705638757.909852) vcan0 141#14D4FCFB
(1705638757.910000) vcan0 200#9200B0FFE52EB01D
(1705638757.915000) vcan0 200#9200B0FFFD2EB01D
(1705638757.915502) vcan0 20A#DE
(1705638757.920000) vcan0 200#9100B0FF272FB01D
(1705638757.925000) vcan0 200#9100B0FF072FB01D
(1705638757.930000) vcan0 200#9000B0FF572FB01D
(1705638757.934208) vcan0 658#C9A0B6C501
(1705638757.935000) vcan0 200#9000B0FF142FB01D
(1705638757.940000) vcan0 200#8F00B0FF852FB01D
(1705638757.942481) vcan0 25D#7EE8AE0BCB
(1705638757.945000) vcan0 200#8F00B0FF912FB01D
(1705638757.946698) vcan0 616#59F10D504CC6C9
(1705638757.950000) vcan0 200#8E00B0FF4E2FB01D
(1705638757.954525) vcan0 6CE#831574
(1705638757.955000) vcan0 200#8D00B0FF122FB01D
(1705638757.955592) vcan0 04D#6ED8F31CA9E8AA98
